#   Hz   S  RI   R   50
!
0.000000e+00 1.106529e-03 0.000000e+00 9.988557e-01 0.000000e+00 9.988559e-01 0.000000e+00 1.133518e-03 0.000000e+00
1.000000e+08 1.106538e-03 -7.473486e-06 9.988556e-01 -1.576916e-04 9.988559e-01 -1.576709e-04 1.133527e-03 -7.644659e-06
2.000000e+08 1.106565e-03 -1.494717e-05 9.988556e-01 -3.153829e-04 9.988558e-01 -3.153415e-04 1.133552e-03 -1.528951e-05
3.000000e+08 1.106611e-03 -2.242125e-05 9.988554e-01 -4.730736e-04 9.988557e-01 -4.730114e-04 1.133594e-03 -2.293474e-05
4.000000e+08 1.106674e-03 -2.989592e-05 9.988553e-01 -6.307632e-04 9.988555e-01 -6.306803e-04 1.133653e-03 -3.058054e-05
5.000000e+08 1.106756e-03 -3.737139e-05 9.988550e-01 -7.884514e-04 9.988553e-01 -7.883479e-04 1.133728e-03 -3.822709e-05
6.000000e+08 1.106857e-03 -4.484785e-05 9.988547e-01 -9.461379e-04 9.988550e-01 -9.460137e-04 1.133820e-03 -4.587460e-05
7.000000e+08 1.106975e-03 -5.232549e-05 9.988544e-01 -1.103822e-03 9.988546e-01 -1.103677e-03 1.133929e-03 -5.352324e-05
8.000000e+08 1.107111e-03 -5.980452e-05 9.988540e-01 -1.261505e-03 9.988542e-01 -1.261339e-03 1.134055e-03 -6.117322e-05
9.000000e+08 1.107266e-03 -6.728513e-05 9.988536e-01 -1.419184e-03 9.988538e-01 -1.418998e-03 1.134197e-03 -6.882471e-05
1.000000e+09 1.107439e-03 -7.476752e-05 9.988531e-01 -1.576860e-03 9.988533e-01 -1.576653e-03 1.134356e-03 -7.647790e-05
1.100000e+09 1.107630e-03 -8.225189e-05 9.988525e-01 -1.734533e-03 9.988528e-01 -1.734305e-03 1.134532e-03 -8.413299e-05
1.200000e+09 1.107839e-03 -8.973844e-05 9.988519e-01 -1.892202e-03 9.988522e-01 -1.891954e-03 1.134725e-03 -9.179017e-05
1.300000e+09 1.108066e-03 -9.722735e-05 9.988513e-01 -2.049867e-03 9.988515e-01 -2.049598e-03 1.134934e-03 -9.944961e-05
1.400000e+09 1.108311e-03 -1.047188e-04 9.988506e-01 -2.207528e-03 9.988508e-01 -2.207238e-03 1.135159e-03 -1.071115e-04
1.500000e+09 1.108574e-03 -1.122131e-04 9.988498e-01 -2.365184e-03 9.988500e-01 -2.364874e-03 1.135401e-03 -1.147761e-04
1.600000e+09 1.108855e-03 -1.197103e-04 9.988490e-01 -2.522835e-03 9.988492e-01 -2.522504e-03 1.135660e-03 -1.224434e-04
1.700000e+09 1.109154e-03 -1.272106e-04 9.988482e-01 -2.680480e-03 9.988484e-01 -2.680129e-03 1.135936e-03 -1.301139e-04
1.800000e+09 1.109471e-03 -1.347143e-04 9.988472e-01 -2.838120e-03 9.988475e-01 -2.837748e-03 1.136227e-03 -1.377875e-04
1.900000e+09 1.109806e-03 -1.422215e-04 9.988463e-01 -2.995753e-03 9.988465e-01 -2.995361e-03 1.136535e-03 -1.454645e-04
2.000000e+09 1.110158e-03 -1.497325e-04 9.988453e-01 -3.153381e-03 9.988455e-01 -3.152967e-03 1.136860e-03 -1.531450e-04
2.100000e+09 1.110529e-03 -1.572474e-04 9.988442e-01 -3.311001e-03 9.988444e-01 -3.310567e-03 1.137201e-03 -1.608294e-04
2.200000e+09 1.110917e-03 -1.647664e-04 9.988431e-01 -3.468614e-03 9.988433e-01 -3.468160e-03 1.137558e-03 -1.685177e-04
2.300000e+09 1.111323e-03 -1.722897e-04 9.988419e-01 -3.626220e-03 9.988422e-01 -3.625745e-03 1.137932e-03 -1.762101e-04
2.400000e+09 1.111746e-03 -1.798175e-04 9.988407e-01 -3.783819e-03 9.988409e-01 -3.783323e-03 1.138322e-03 -1.839069e-04
2.500000e+09 1.112187e-03 -1.873500e-04 9.988394e-01 -3.941409e-03 9.988397e-01 -3.940893e-03 1.138728e-03 -1.916081e-04
2.600000e+09 1.112646e-03 -1.948874e-04 9.988381e-01 -4.098990e-03 9.988383e-01 -4.098454e-03 1.139150e-03 -1.993140e-04
2.700000e+09 1.113122e-03 -2.024298e-04 9.988368e-01 -4.256563e-03 9.988370e-01 -4.256007e-03 1.139588e-03 -2.070248e-04
2.800000e+09 1.113615e-03 -2.099776e-04 9.988353e-01 -4.414128e-03 9.988356e-01 -4.413550e-03 1.140042e-03 -2.147406e-04
2.900000e+09 1.114126e-03 -2.175307e-04 9.988339e-01 -4.571682e-03 9.988341e-01 -4.571084e-03 1.140513e-03 -2.224616e-04
3.000000e+09 1.114654e-03 -2.250895e-04 9.988323e-01 -4.729227e-03 9.988326e-01 -4.728609e-03 1.140999e-03 -2.301881e-04
3.100000e+09 1.115199e-03 -2.326541e-04 9.988308e-01 -4.886762e-03 9.988310e-01 -4.886124e-03 1.141501e-03 -2.379201e-04
3.200000e+09 1.115762e-03 -2.402247e-04 9.988291e-01 -5.044287e-03 9.988294e-01 -5.043628e-03 1.142019e-03 -2.456579e-04
3.300000e+09 1.116341e-03 -2.478015e-04 9.988275e-01 -5.201801e-03 9.988277e-01 -5.201122e-03 1.142552e-03 -2.534016e-04
3.400000e+09 1.116938e-03 -2.553847e-04 9.988257e-01 -5.359304e-03 9.988260e-01 -5.358605e-03 1.143102e-03 -2.611515e-04
3.500000e+09 1.117551e-03 -2.629745e-04 9.988240e-01 -5.516796e-03 9.988242e-01 -5.516076e-03 1.143667e-03 -2.689076e-04
3.600000e+09 1.118181e-03 -2.705709e-04 9.988221e-01 -5.674277e-03 9.988224e-01 -5.673537e-03 1.144247e-03 -2.766702e-04
3.700000e+09 1.118829e-03 -2.781743e-04 9.988203e-01 -5.831745e-03 9.988205e-01 -5.830985e-03 1.144843e-03 -2.844394e-04
3.800000e+09 1.119492e-03 -2.857848e-04 9.988184e-01 -5.989201e-03 9.988186e-01 -5.988421e-03 1.145454e-03 -2.922154e-04
3.900000e+09 1.120173e-03 -2.934026e-04 9.988164e-01 -6.146645e-03 9.988166e-01 -6.145845e-03 1.146081e-03 -2.999984e-04
4.000000e+09 1.120870e-03 -3.010278e-04 9.988144e-01 -6.304077e-03 9.988146e-01 -6.303256e-03 1.146723e-03 -3.077886e-04
4.100000e+09 1.121584e-03 -3.086606e-04 9.988123e-01 -6.461495e-03 9.988125e-01 -6.460654e-03 1.147380e-03 -3.155860e-04
4.200000e+09 1.122313e-03 -3.163013e-04 9.988102e-01 -6.618899e-03 9.988104e-01 -6.618038e-03 1.148052e-03 -3.233910e-04
4.300000e+09 1.123060e-03 -3.239499e-04 9.988080e-01 -6.776291e-03 9.988082e-01 -6.775409e-03 1.148739e-03 -3.312036e-04
4.400000e+09 1.123822e-03 -3.316067e-04 9.988058e-01 -6.933668e-03 9.988060e-01 -6.932766e-03 1.149441e-03 -3.390241e-04
4.500000e+09 1.124601e-03 -3.392718e-04 9.988035e-01 -7.091031e-03 9.988037e-01 -7.090109e-03 1.150158e-03 -3.468526e-04
4.600000e+09 1.125395e-03 -3.469454e-04 9.988012e-01 -7.248379e-03 9.988014e-01 -7.247438e-03 1.150889e-03 -3.546892e-04
4.700000e+09 1.126206e-03 -3.546277e-04 9.987988e-01 -7.405713e-03 9.987991e-01 -7.404751e-03 1.151636e-03 -3.625341e-04
4.800000e+09 1.127032e-03 -3.623189e-04 9.987964e-01 -7.563031e-03 9.987966e-01 -7.562050e-03 1.152397e-03 -3.703875e-04
4.900000e+09 1.127874e-03 -3.700190e-04 9.987940e-01 -7.720334e-03 9.987942e-01 -7.719333e-03 1.153172e-03 -3.782496e-04
5.000000e+09 1.128731e-03 -3.777283e-04 9.987915e-01 -7.877622e-03 9.987917e-01 -7.876601e-03 1.153962e-03 -3.861204e-04
5.100000e+09 1.129605e-03 -3.854469e-04 9.987889e-01 -8.034893e-03 9.987891e-01 -8.033852e-03 1.154766e-03 -3.940003e-04
5.200000e+09 1.130493e-03 -3.931751e-04 9.987863e-01 -8.192148e-03 9.987865e-01 -8.191088e-03 1.155584e-03 -4.018892e-04
5.300000e+09 1.131397e-03 -4.009129e-04 9.987837e-01 -8.349387e-03 9.987839e-01 -8.348307e-03 1.156416e-03 -4.097875e-04
5.400000e+09 1.132316e-03 -4.086606e-04 9.987810e-01 -8.506609e-03 9.987812e-01 -8.505510e-03 1.157263e-03 -4.176951e-04
5.500000e+09 1.133250e-03 -4.164182e-04 9.987782e-01 -8.663815e-03 9.987784e-01 -8.662695e-03 1.158123e-03 -4.256124e-04
5.600000e+09 1.134199e-03 -4.241859e-04 9.987754e-01 -8.821002e-03 9.987756e-01 -8.819863e-03 1.158997e-03 -4.335394e-04
5.700000e+09 1.135163e-03 -4.319640e-04 9.987726e-01 -8.978173e-03 9.987728e-01 -8.977014e-03 1.159885e-03 -4.414763e-04
5.800000e+09 1.136142e-03 -4.397526e-04 9.987697e-01 -9.135325e-03 9.987699e-01 -9.134147e-03 1.160786e-03 -4.494233e-04
5.900000e+09 1.137135e-03 -4.475517e-04 9.987668e-01 -9.292460e-03 9.987670e-01 -9.291262e-03 1.161701e-03 -4.573804e-04
6.000000e+09 1.138143e-03 -4.553616e-04 9.987638e-01 -9.449576e-03 9.987640e-01 -9.448359e-03 1.162629e-03 -4.653479e-04
6.100000e+09 1.139165e-03 -4.631824e-04 9.987608e-01 -9.606674e-03 9.987610e-01 -9.605437e-03 1.163571e-03 -4.733259e-04
6.200000e+09 1.140202e-03 -4.710143e-04 9.987577e-01 -9.763753e-03 9.987579e-01 -9.762496e-03 1.164526e-03 -4.813145e-04
6.300000e+09 1.141252e-03 -4.788575e-04 9.987546e-01 -9.920812e-03 9.987548e-01 -9.919537e-03 1.165493e-03 -4.893139e-04
6.400000e+09 1.142317e-03 -4.867119e-04 9.987515e-01 -1.007785e-02 9.987517e-01 -1.007656e-02 1.166474e-03 -4.973242e-04
6.500000e+09 1.143396e-03 -4.945779e-04 9.987483e-01 -1.023487e-02 9.987485e-01 -1.023356e-02 1.167467e-03 -5.053456e-04
6.600000e+09 1.144488e-03 -5.024556e-04 9.987450e-01 -1.039188e-02 9.987452e-01 -1.039054e-02 1.168473e-03 -5.133782e-04
6.700000e+09 1.145594e-03 -5.103450e-04 9.987417e-01 -1.054886e-02 9.987419e-01 -1.054750e-02 1.169492e-03 -5.214221e-04
6.800000e+09 1.146713e-03 -5.182464e-04 9.987384e-01 -1.070582e-02 9.987386e-01 -1.070445e-02 1.170523e-03 -5.294775e-04
6.900000e+09 1.147846e-03 -5.261598e-04 9.987350e-01 -1.086276e-02 9.987352e-01 -1.086137e-02 1.171567e-03 -5.375445e-04
7.000000e+09 1.148992e-03 -5.340855e-04 9.987316e-01 -1.101968e-02 9.987318e-01 -1.101827e-02 1.172622e-03 -5.456232e-04
7.100000e+09 1.150151e-03 -5.420235e-04 9.987281e-01 -1.117658e-02 9.987283e-01 -1.117515e-02 1.173690e-03 -5.537139e-04
7.200000e+09 1.151323e-03 -5.499740e-04 9.987246e-01 -1.133346e-02 9.987248e-01 -1.133201e-02 1.174770e-03 -5.618165e-04
7.300000e+09 1.152508e-03 -5.579371e-04 9.987211e-01 -1.149031e-02 9.987213e-01 -1.148885e-02 1.175861e-03 -5.699313e-04
7.400000e+09 1.153706e-03 -5.659130e-04 9.987175e-01 -1.164715e-02 9.987177e-01 -1.164566e-02 1.176965e-03 -5.780583e-04
7.500000e+09 1.154916e-03 -5.739018e-04 9.987138e-01 -1.180396e-02 9.987140e-01 -1.180246e-02 1.178080e-03 -5.861978e-04
7.600000e+09 1.156139e-03 -5.819035e-04 9.987101e-01 -1.196075e-02 9.987103e-01 -1.195923e-02 1.179206e-03 -5.943497e-04
7.700000e+09 1.157373e-03 -5.899184e-04 9.987064e-01 -1.211752e-02 9.987066e-01 -1.211598e-02 1.180344e-03 -6.025143e-04
7.800000e+09 1.158620e-03 -5.979465e-04 9.987027e-01 -1.227427e-02 9.987028e-01 -1.227271e-02 1.181492e-03 -6.106916e-04
7.900000e+09 1.159879e-03 -6.059881e-04 9.986989e-01 -1.243099e-02 9.986990e-01 -1.242942e-02 1.182652e-03 -6.188819e-04
8.000000e+09 1.161150e-03 -6.140431e-04 9.986950e-01 -1.258770e-02 9.986952e-01 -1.258610e-02 1.183823e-03 -6.270851e-04
8.100000e+09 1.162433e-03 -6.221117e-04 9.986911e-01 -1.274438e-02 9.986913e-01 -1.274276e-02 1.185004e-03 -6.353014e-04
8.200000e+09 1.163726e-03 -6.301941e-04 9.986872e-01 -1.290103e-02 9.986874e-01 -1.289940e-02 1.186197e-03 -6.435310e-04
8.300000e+09 1.165032e-03 -6.382904e-04 9.986832e-01 -1.305766e-02 9.986834e-01 -1.305601e-02 1.187399e-03 -6.517739e-04
8.400000e+09 1.166348e-03 -6.464006e-04 9.986792e-01 -1.321427e-02 9.986794e-01 -1.321260e-02 1.188612e-03 -6.600302e-04
8.500000e+09 1.167676e-03 -6.545248e-04 9.986752e-01 -1.337086e-02 9.986753e-01 -1.336917e-02 1.189836e-03 -6.683002e-04
8.600000e+09 1.169015e-03 -6.626633e-04 9.986711e-01 -1.352742e-02 9.986712e-01 -1.352571e-02 1.191069e-03 -6.765837e-04
8.700000e+09 1.170364e-03 -6.708161e-04 9.986669e-01 -1.368396e-02 9.986671e-01 -1.368223e-02 1.192312e-03 -6.848811e-04
8.800000e+09 1.171724e-03 -6.789833e-04 9.986628e-01 -1.384047e-02 9.986629e-01 -1.383873e-02 1.193566e-03 -6.931923e-04
8.900000e+09 1.173094e-03 -6.871649e-04 9.986585e-01 -1.399696e-02 9.986587e-01 -1.399520e-02 1.194828e-03 -7.015176e-04
9.000000e+09 1.174475e-03 -6.953612e-04 9.986543e-01 -1.415343e-02 9.986545e-01 -1.415165e-02 1.196101e-03 -7.098569e-04
9.100000e+09 1.175866e-03 -7.035722e-04 9.986500e-01 -1.430987e-02 9.986502e-01 -1.430807e-02 1.197382e-03 -7.182104e-04
9.200000e+09 1.177267e-03 -7.117981e-04 9.986457e-01 -1.446629e-02 9.986458e-01 -1.446447e-02 1.198673e-03 -7.265781e-04
9.300000e+09 1.178677e-03 -7.200388e-04 9.986413e-01 -1.462268e-02 9.986415e-01 -1.462085e-02 1.199973e-03 -7.349603e-04
9.400000e+09 1.180097e-03 -7.282945e-04 9.986369e-01 -1.477905e-02 9.986371e-01 -1.477719e-02 1.201282e-03 -7.433569e-04
9.500000e+09 1.181527e-03 -7.365654e-04 9.986325e-01 -1.493539e-02 9.986326e-01 -1.493352e-02 1.202600e-03 -7.517681e-04
9.600000e+09 1.182966e-03 -7.448514e-04 9.986280e-01 -1.509170e-02 9.986282e-01 -1.508982e-02 1.203926e-03 -7.601939e-04
9.700000e+09 1.184415e-03 -7.531527e-04 9.986235e-01 -1.524799e-02 9.986236e-01 -1.524609e-02 1.205261e-03 -7.686345e-04
9.800000e+09 1.185872e-03 -7.614694e-04 9.986189e-01 -1.540426e-02 9.986191e-01 -1.540234e-02 1.206604e-03 -7.770899e-04
9.900000e+09 1.187338e-03 -7.698015e-04 9.986143e-01 -1.556050e-02 9.986145e-01 -1.555856e-02 1.207955e-03 -7.855603e-04
1.000000e+10 1.188813e-03 -7.781492e-04 9.986097e-01 -1.571671e-02 9.986099e-01 -1.571476e-02 1.209315e-03 -7.940456e-04
1.010000e+10 1.190296e-03 -7.865125e-04 9.986050e-01 -1.587290e-02 9.986052e-01 -1.587093e-02 1.210682e-03 -8.025460e-04
1.020000e+10 1.191788e-03 -7.948915e-04 9.986003e-01 -1.602906e-02 9.986005e-01 -1.602707e-02 1.212057e-03 -8.110616e-04
1.030000e+10 1.193288e-03 -8.032862e-04 9.985956e-01 -1.618520e-02 9.985958e-01 -1.618319e-02 1.213439e-03 -8.195924e-04
1.040000e+10 1.194796e-03 -8.116969e-04 9.985908e-01 -1.634131e-02 9.985910e-01 -1.633928e-02 1.214829e-03 -8.281385e-04
1.050000e+10 1.196311e-03 -8.201234e-04 9.985860e-01 -1.649739e-02 9.985862e-01 -1.649535e-02 1.216227e-03 -8.367000e-04
1.060000e+10 1.197835e-03 -8.285660e-04 9.985812e-01 -1.665345e-02 9.985814e-01 -1.665139e-02 1.217631e-03 -8.452769e-04
1.070000e+10 1.199366e-03 -8.370246e-04 9.985763e-01 -1.680948e-02 9.985765e-01 -1.680740e-02 1.219042e-03 -8.538694e-04
1.080000e+10 1.200904e-03 -8.454994e-04 9.985714e-01 -1.696548e-02 9.985716e-01 -1.696339e-02 1.220460e-03 -8.624775e-04
1.090000e+10 1.202449e-03 -8.539904e-04 9.985665e-01 -1.712146e-02 9.985666e-01 -1.711935e-02 1.221885e-03 -8.711013e-04
1.100000e+10 1.204002e-03 -8.624976e-04 9.985615e-01 -1.727741e-02 9.985616e-01 -1.727529e-02 1.223316e-03 -8.797408e-04
1.110000e+10 1.205561e-03 -8.710212e-04 9.985565e-01 -1.743334e-02 9.985566e-01 -1.743119e-02 1.224754e-03 -8.883961e-04
1.120000e+10 1.207127e-03 -8.795612e-04 9.985514e-01 -1.758923e-02 9.985516e-01 -1.758707e-02 1.226197e-03 -8.970673e-04
1.130000e+10 1.208699e-03 -8.881177e-04 9.985464e-01 -1.774510e-02 9.985465e-01 -1.774293e-02 1.227647e-03 -9.057544e-04
1.140000e+10 1.210278e-03 -8.966906e-04 9.985413e-01 -1.790095e-02 9.985414e-01 -1.789876e-02 1.229102e-03 -9.144574e-04
1.150000e+10 1.211863e-03 -9.052802e-04 9.985361e-01 -1.805676e-02 9.985363e-01 -1.805456e-02 1.230564e-03 -9.231765e-04
1.160000e+10 1.213453e-03 -9.138863e-04 9.985309e-01 -1.821255e-02 9.985311e-01 -1.821033e-02 1.232030e-03 -9.319117e-04
1.170000e+10 1.215050e-03 -9.225091e-04 9.985257e-01 -1.836831e-02 9.985259e-01 -1.836607e-02 1.233502e-03 -9.406630e-04
1.180000e+10 1.216652e-03 -9.311487e-04 9.985205e-01 -1.852405e-02 9.985206e-01 -1.852179e-02 1.234980e-03 -9.494305e-04
1.190000e+10 1.218259e-03 -9.398050e-04 9.985152e-01 -1.867976e-02 9.985154e-01 -1.867748e-02 1.236462e-03 -9.582142e-04
1.200000e+10 1.219872e-03 -9.484781e-04 9.985099e-01 -1.883544e-02 9.985101e-01 -1.883315e-02 1.237949e-03 -9.670143e-04
1.210000e+10 1.221490e-03 -9.571681e-04 9.985046e-01 -1.899109e-02 9.985047e-01 -1.898879e-02 1.239441e-03 -9.758306e-04
1.220000e+10 1.223113e-03 -9.658750e-04 9.984993e-01 -1.914672e-02 9.984994e-01 -1.914439e-02 1.240938e-03 -9.846634e-04
1.230000e+10 1.224741e-03 -9.745988e-04 9.984939e-01 -1.930231e-02 9.984940e-01 -1.929998e-02 1.242439e-03 -9.935125e-04
1.240000e+10 1.226373e-03 -9.833396e-04 9.984884e-01 -1.945788e-02 9.984886e-01 -1.945553e-02 1.243944e-03 -1.002378e-03
1.250000e+10 1.228009e-03 -9.920974e-04 9.984830e-01 -1.961343e-02 9.984831e-01 -1.961106e-02 1.245453e-03 -1.011260e-03
1.260000e+10 1.229650e-03 -1.000872e-03 9.984775e-01 -1.976894e-02 9.984776e-01 -1.976656e-02 1.246966e-03 -1.020159e-03
1.270000e+10 1.231295e-03 -1.009664e-03 9.984720e-01 -1.992443e-02 9.984721e-01 -1.992203e-02 1.248483e-03 -1.029074e-03
1.280000e+10 1.232944e-03 -1.018473e-03 9.984665e-01 -2.007989e-02 9.984666e-01 -2.007748e-02 1.250004e-03 -1.038006e-03
1.290000e+10 1.234596e-03 -1.027299e-03 9.984609e-01 -2.023532e-02 9.984610e-01 -2.023289e-02 1.251528e-03 -1.046954e-03
1.300000e+10 1.236252e-03 -1.036143e-03 9.984553e-01 -2.039073e-02 9.984554e-01 -2.038828e-02 1.253055e-03 -1.055919e-03
1.310000e+10 1.237911e-03 -1.045003e-03 9.984497e-01 -2.054611e-02 9.984498e-01 -2.054365e-02 1.254586e-03 -1.064901e-03
1.320000e+10 1.239573e-03 -1.053881e-03 9.984440e-01 -2.070146e-02 9.984441e-01 -2.069898e-02 1.256119e-03 -1.073900e-03
1.330000e+10 1.241239e-03 -1.062776e-03 9.984383e-01 -2.085678e-02 9.984385e-01 -2.085429e-02 1.257655e-03 -1.082915e-03
1.340000e+10 1.242907e-03 -1.071688e-03 9.984326e-01 -2.101207e-02 9.984328e-01 -2.100957e-02 1.259194e-03 -1.091947e-03
1.350000e+10 1.244578e-03 -1.080618e-03 9.984269e-01 -2.116734e-02 9.984270e-01 -2.116482e-02 1.260736e-03 -1.100995e-03
1.360000e+10 1.246251e-03 -1.089564e-03 9.984211e-01 -2.132258e-02 9.984213e-01 -2.132005e-02 1.262279e-03 -1.110061e-03
1.370000e+10 1.247927e-03 -1.098528e-03 9.984154e-01 -2.147779e-02 9.984155e-01 -2.147525e-02 1.263825e-03 -1.119143e-03
1.380000e+10 1.249605e-03 -1.107510e-03 9.984095e-01 -2.163298e-02 9.984097e-01 -2.163042e-02 1.265373e-03 -1.128242e-03
1.390000e+10 1.251284e-03 -1.116508e-03 9.984037e-01 -2.178814e-02 9.984038e-01 -2.178556e-02 1.266922e-03 -1.137358e-03
1.400000e+10 1.252966e-03 -1.125524e-03 9.983978e-01 -2.194327e-02 9.983980e-01 -2.194067e-02 1.268474e-03 -1.146491e-03
1.410000e+10 1.254649e-03 -1.134558e-03 9.983920e-01 -2.209837e-02 9.983921e-01 -2.209576e-02 1.270027e-03 -1.155641e-03
1.420000e+10 1.256334e-03 -1.143608e-03 9.983860e-01 -2.225344e-02 9.983861e-01 -2.225082e-02 1.271581e-03 -1.164807e-03
1.430000e+10 1.258019e-03 -1.152676e-03 9.983801e-01 -2.240849e-02 9.983802e-01 -2.240586e-02 1.273136e-03 -1.173991e-03
1.440000e+10 1.259706e-03 -1.161761e-03 9.983741e-01 -2.256351e-02 9.983742e-01 -2.256086e-02 1.274693e-03 -1.183191e-03
1.450000e+10 1.261394e-03 -1.170864e-03 9.983681e-01 -2.271850e-02 9.983682e-01 -2.271584e-02 1.276250e-03 -1.192408e-03
1.460000e+10 1.263083e-03 -1.179984e-03 9.983621e-01 -2.287347e-02 9.983622e-01 -2.287079e-02 1.277808e-03 -1.201642e-03
1.470000e+10 1.264772e-03 -1.189121e-03 9.983561e-01 -2.302841e-02 9.983562e-01 -2.302572e-02 1.279367e-03 -1.210893e-03
1.480000e+10 1.266461e-03 -1.198275e-03 9.983500e-01 -2.318332e-02 9.983501e-01 -2.318062e-02 1.280926e-03 -1.220161e-03
1.490000e+10 1.268151e-03 -1.207447e-03 9.983439e-01 -2.333820e-02 9.983440e-01 -2.333549e-02 1.282485e-03 -1.229446e-03
1.500000e+10 1.269841e-03 -1.216636e-03 9.983378e-01 -2.349306e-02 9.983379e-01 -2.349033e-02 1.284044e-03 -1.238747e-03
1.510000e+10 1.271531e-03 -1.225843e-03 9.983317e-01 -2.364789e-02 9.983318e-01 -2.364515e-02 1.285604e-03 -1.248066e-03
1.520000e+10 1.273220e-03 -1.235066e-03 9.983255e-01 -2.380270e-02 9.983256e-01 -2.379994e-02 1.287163e-03 -1.257401e-03
1.530000e+10 1.274909e-03 -1.244307e-03 9.983194e-01 -2.395747e-02 9.983195e-01 -2.395470e-02 1.288722e-03 -1.266753e-03
1.540000e+10 1.276598e-03 -1.253565e-03 9.983132e-01 -2.411222e-02 9.983133e-01 -2.410944e-02 1.290280e-03 -1.276122e-03
1.550000e+10 1.278285e-03 -1.262841e-03 9.983069e-01 -2.426695e-02 9.983070e-01 -2.426415e-02 1.291837e-03 -1.285508e-03
1.560000e+10 1.279972e-03 -1.272133e-03 9.983007e-01 -2.442164e-02 9.983008e-01 -2.441883e-02 1.293394e-03 -1.294910e-03
1.570000e+10 1.281658e-03 -1.281443e-03 9.982944e-01 -2.457631e-02 9.982945e-01 -2.457349e-02 1.294950e-03 -1.304329e-03
1.580000e+10 1.283342e-03 -1.290770e-03 9.982881e-01 -2.473096e-02 9.982882e-01 -2.472812e-02 1.296505e-03 -1.313765e-03
1.590000e+10 1.285025e-03 -1.300113e-03 9.982818e-01 -2.488557e-02 9.982819e-01 -2.488273e-02 1.298058e-03 -1.323218e-03
1.600000e+10 1.286706e-03 -1.309474e-03 9.982755e-01 -2.504017e-02 9.982756e-01 -2.503731e-02 1.299610e-03 -1.332688e-03
1.610000e+10 1.288386e-03 -1.318853e-03 9.982692e-01 -2.519473e-02 9.982692e-01 -2.519186e-02 1.301160e-03 -1.342174e-03
1.620000e+10 1.290064e-03 -1.328248e-03 9.982628e-01 -2.534927e-02 9.982629e-01 -2.534639e-02 1.302709e-03 -1.351677e-03
1.630000e+10 1.291739e-03 -1.337660e-03 9.982564e-01 -2.550378e-02 9.982565e-01 -2.550089e-02 1.304256e-03 -1.361196e-03
1.640000e+10 1.293413e-03 -1.347089e-03 9.982500e-01 -2.565827e-02 9.982501e-01 -2.565536e-02 1.305800e-03 -1.370732e-03
