#   Hz   S  RI   R   50
!
0.000000e+00 2.093068e-03 0.000000e+00 9.979814e-01 0.000000e+00 9.979692e-01 0.000000e+00 2.098301e-03 0.000000e+00
1.000000e+08 2.093095e-03 -2.575788e-06 9.979813e-01 -3.157536e-04 9.979691e-01 -3.156001e-04 2.098328e-03 -2.294581e-06
2.000000e+08 2.093178e-03 -5.152193e-06 9.979810e-01 -6.315063e-04 9.979688e-01 -6.311992e-04 2.098412e-03 -4.589800e-06
3.000000e+08 2.093315e-03 -7.729832e-06 9.979806e-01 -9.472569e-04 9.979684e-01 -9.467965e-04 2.098552e-03 -6.886292e-06
4.000000e+08 2.093508e-03 -1.030932e-05 9.979799e-01 -1.263005e-03 9.979677e-01 -1.262391e-03 2.098747e-03 -9.184695e-06
5.000000e+08 2.093755e-03 -1.289128e-05 9.979791e-01 -1.578748e-03 9.979670e-01 -1.577981e-03 2.098998e-03 -1.148565e-05
6.000000e+08 2.094057e-03 -1.547632e-05 9.979781e-01 -1.894487e-03 9.979660e-01 -1.893567e-03 2.099305e-03 -1.378978e-05
7.000000e+08 2.094415e-03 -1.806506e-05 9.979770e-01 -2.210220e-03 9.979648e-01 -2.209148e-03 2.099667e-03 -1.609773e-05
8.000000e+08 2.094827e-03 -2.065812e-05 9.979756e-01 -2.525946e-03 9.979635e-01 -2.524721e-03 2.100085e-03 -1.841014e-05
9.000000e+08 2.095293e-03 -2.325610e-05 9.979741e-01 -2.841664e-03 9.979620e-01 -2.840287e-03 2.100558e-03 -2.072763e-05
1.000000e+09 2.095815e-03 -2.585963e-05 9.979724e-01 -3.157373e-03 9.979604e-01 -3.155845e-03 2.101087e-03 -2.305084e-05
1.100000e+09 2.096391e-03 -2.846931e-05 9.979706e-01 -3.473072e-03 9.979585e-01 -3.471393e-03 2.101672e-03 -2.538041e-05
1.200000e+09 2.097022e-03 -3.108576e-05 9.979685e-01 -3.788760e-03 9.979565e-01 -3.786931e-03 2.102312e-03 -2.771696e-05
1.300000e+09 2.097707e-03 -3.370959e-05 9.979663e-01 -4.104437e-03 9.979543e-01 -4.102457e-03 2.103007e-03 -3.006113e-05
1.400000e+09 2.098447e-03 -3.634140e-05 9.979639e-01 -4.420100e-03 9.979519e-01 -4.417971e-03 2.103757e-03 -3.241354e-05
1.500000e+09 2.099240e-03 -3.898181e-05 9.979613e-01 -4.735750e-03 9.979494e-01 -4.733472e-03 2.104562e-03 -3.477482e-05
1.600000e+09 2.100089e-03 -4.163142e-05 9.979585e-01 -5.051385e-03 9.979467e-01 -5.048959e-03 2.105422e-03 -3.714560e-05
1.700000e+09 2.100991e-03 -4.429084e-05 9.979556e-01 -5.367004e-03 9.979438e-01 -5.364431e-03 2.106337e-03 -3.952650e-05
1.800000e+09 2.101947e-03 -4.696067e-05 9.979525e-01 -5.682607e-03 9.979407e-01 -5.679887e-03 2.107307e-03 -4.191815e-05
1.900000e+09 2.102957e-03 -4.964152e-05 9.979492e-01 -5.998192e-03 9.979374e-01 -5.995326e-03 2.108331e-03 -4.432116e-05
2.000000e+09 2.104020e-03 -5.233398e-05 9.979457e-01 -6.313758e-03 9.979340e-01 -6.310747e-03 2.109410e-03 -4.673616e-05
2.100000e+09 2.105137e-03 -5.503865e-05 9.979421e-01 -6.629305e-03 9.979304e-01 -6.626149e-03 2.110543e-03 -4.916376e-05
2.200000e+09 2.106308e-03 -5.775613e-05 9.979382e-01 -6.944831e-03 9.979267e-01 -6.941532e-03 2.111730e-03 -5.160458e-05
2.300000e+09 2.107532e-03 -6.048702e-05 9.979342e-01 -7.260336e-03 9.979227e-01 -7.256895e-03 2.112971e-03 -5.405924e-05
2.400000e+09 2.108808e-03 -6.323190e-05 9.979301e-01 -7.575818e-03 9.979186e-01 -7.572236e-03 2.114266e-03 -5.652833e-05
2.500000e+09 2.110138e-03 -6.599137e-05 9.979257e-01 -7.891277e-03 9.979143e-01 -7.887554e-03 2.115614e-03 -5.901248e-05
2.600000e+09 2.111521e-03 -6.876602e-05 9.979212e-01 -8.206711e-03 9.979099e-01 -8.202850e-03 2.117016e-03 -6.151229e-05
2.700000e+09 2.112956e-03 -7.155643e-05 9.979165e-01 -8.522120e-03 9.979053e-01 -8.518121e-03 2.118471e-03 -6.402836e-05
2.800000e+09 2.114443e-03 -7.436318e-05 9.979116e-01 -8.837503e-03 9.979005e-01 -8.833367e-03 2.119979e-03 -6.656129e-05
2.900000e+09 2.115983e-03 -7.718685e-05 9.979066e-01 -9.152859e-03 9.978955e-01 -9.148587e-03 2.121540e-03 -6.911169e-05
3.000000e+09 2.117574e-03 -8.002803e-05 9.979014e-01 -9.468187e-03 9.978903e-01 -9.463781e-03 2.123154e-03 -7.168014e-05
3.100000e+09 2.119217e-03 -8.288729e-05 9.978960e-01 -9.783486e-03 9.978850e-01 -9.778947e-03 2.124820e-03 -7.426724e-05
3.200000e+09 2.120912e-03 -8.576520e-05 9.978904e-01 -1.009876e-02 9.978795e-01 -1.009408e-02 2.126538e-03 -7.687358e-05
3.300000e+09 2.122658e-03 -8.866232e-05 9.978847e-01 -1.041399e-02 9.978739e-01 -1.040919e-02 2.128308e-03 -7.949975e-05
3.400000e+09 2.124455e-03 -9.157924e-05 9.978788e-01 -1.072920e-02 9.978681e-01 -1.072427e-02 2.130130e-03 -8.214633e-05
3.500000e+09 2.126303e-03 -9.451650e-05 9.978727e-01 -1.104437e-02 9.978621e-01 -1.103932e-02 2.132004e-03 -8.481390e-05
3.600000e+09 2.128202e-03 -9.747467e-05 9.978664e-01 -1.135951e-02 9.978559e-01 -1.135433e-02 2.133928e-03 -8.750303e-05
3.700000e+09 2.130151e-03 -1.004543e-04 9.978600e-01 -1.167462e-02 9.978496e-01 -1.166931e-02 2.135904e-03 -9.021430e-05
3.800000e+09 2.132149e-03 -1.034560e-04 9.978534e-01 -1.198969e-02 9.978431e-01 -1.198426e-02 2.137930e-03 -9.294829e-05
3.900000e+09 2.134198e-03 -1.064802e-04 9.978466e-01 -1.230473e-02 9.978364e-01 -1.229918e-02 2.140006e-03 -9.570555e-05
4.000000e+09 2.136296e-03 -1.095275e-04 9.978397e-01 -1.261973e-02 9.978296e-01 -1.261405e-02 2.142133e-03 -9.848665e-05
4.100000e+09 2.138444e-03 -1.125986e-04 9.978326e-01 -1.293469e-02 9.978226e-01 -1.292890e-02 2.144309e-03 -1.012921e-04
4.200000e+09 2.140641e-03 -1.156938e-04 9.978253e-01 -1.324961e-02 9.978154e-01 -1.324370e-02 2.146536e-03 -1.041226e-04
4.300000e+09 2.142886e-03 -1.188137e-04 9.978179e-01 -1.356449e-02 9.978081e-01 -1.355847e-02 2.148811e-03 -1.069785e-04
4.400000e+09 2.145179e-03 -1.219589e-04 9.978103e-01 -1.387933e-02 9.978006e-01 -1.387320e-02 2.151135e-03 -1.098606e-04
4.500000e+09 2.147521e-03 -1.251299e-04 9.978025e-01 -1.419413e-02 9.977929e-01 -1.418789e-02 2.153508e-03 -1.127691e-04
4.600000e+09 2.149911e-03 -1.283272e-04 9.977946e-01 -1.450889e-02 9.977851e-01 -1.450254e-02 2.155929e-03 -1.157049e-04
4.700000e+09 2.152348e-03 -1.315514e-04 9.977865e-01 -1.482361e-02 9.977771e-01 -1.481715e-02 2.158398e-03 -1.186683e-04
4.800000e+09 2.154832e-03 -1.348029e-04 9.977782e-01 -1.513828e-02 9.977689e-01 -1.513172e-02 2.160915e-03 -1.216599e-04
4.900000e+09 2.157363e-03 -1.380823e-04 9.977698e-01 -1.545291e-02 9.977606e-01 -1.544624e-02 2.163479e-03 -1.246802e-04
5.000000e+09 2.159940e-03 -1.413900e-04 9.977612e-01 -1.576750e-02 9.977521e-01 -1.576072e-02 2.166090e-03 -1.277297e-04
5.100000e+09 2.162564e-03 -1.447266e-04 9.977524e-01 -1.608203e-02 9.977435e-01 -1.607516e-02 2.168748e-03 -1.308090e-04
5.200000e+09 2.165233e-03 -1.480926e-04 9.977435e-01 -1.639652e-02 9.977347e-01 -1.638956e-02 2.171452e-03 -1.339186e-04
5.300000e+09 2.167948e-03 -1.514885e-04 9.977344e-01 -1.671097e-02 9.977257e-01 -1.670390e-02 2.174202e-03 -1.370589e-04
5.400000e+09 2.170708e-03 -1.549147e-04 9.977251e-01 -1.702536e-02 9.977166e-01 -1.701821e-02 2.176997e-03 -1.402306e-04
5.500000e+09 2.173513e-03 -1.583718e-04 9.977157e-01 -1.733971e-02 9.977073e-01 -1.733246e-02 2.179837e-03 -1.434340e-04
5.600000e+09 2.176362e-03 -1.618602e-04 9.977061e-01 -1.765401e-02 9.976978e-01 -1.764667e-02 2.182723e-03 -1.466696e-04
5.700000e+09 2.179256e-03 -1.653803e-04 9.976964e-01 -1.796825e-02 9.976882e-01 -1.796083e-02 2.185653e-03 -1.499381e-04
5.800000e+09 2.182193e-03 -1.689328e-04 9.976865e-01 -1.828245e-02 9.976785e-01 -1.827494e-02 2.188626e-03 -1.532397e-04
5.900000e+09 2.185173e-03 -1.725179e-04 9.976765e-01 -1.859659e-02 9.976686e-01 -1.858900e-02 2.191644e-03 -1.565751e-04
6.000000e+09 2.188196e-03 -1.761363e-04 9.976663e-01 -1.891068e-02 9.976585e-01 -1.890301e-02 2.194704e-03 -1.599447e-04
6.100000e+09 2.191262e-03 -1.797883e-04 9.976559e-01 -1.922472e-02 9.976482e-01 -1.921697e-02 2.197808e-03 -1.633489e-04
6.200000e+09 2.194369e-03 -1.834744e-04 9.976454e-01 -1.953870e-02 9.976379e-01 -1.953088e-02 2.200954e-03 -1.667882e-04
6.300000e+09 2.197519e-03 -1.871951e-04 9.976347e-01 -1.985263e-02 9.976273e-01 -1.984473e-02 2.204141e-03 -1.702631e-04
6.400000e+09 2.200710e-03 -1.909507e-04 9.976238e-01 -2.016651e-02 9.976166e-01 -2.015854e-02 2.207371e-03 -1.737740e-04
6.500000e+09 2.203941e-03 -1.947418e-04 9.976128e-01 -2.048033e-02 9.976058e-01 -2.047228e-02 2.210641e-03 -1.773214e-04
6.600000e+09 2.207213e-03 -1.985687e-04 9.976017e-01 -2.079409e-02 9.975948e-01 -2.078598e-02 2.213953e-03 -1.809056e-04
6.700000e+09 2.210525e-03 -2.024318e-04 9.975904e-01 -2.110779e-02 9.975836e-01 -2.109962e-02 2.217304e-03 -1.845272e-04
6.800000e+09 2.213877e-03 -2.063317e-04 9.975789e-01 -2.142144e-02 9.975723e-01 -2.141320e-02 2.220696e-03 -1.881866e-04
6.900000e+09 2.217268e-03 -2.102687e-04 9.975673e-01 -2.173503e-02 9.975608e-01 -2.172673e-02 2.224127e-03 -1.918842e-04
7.000000e+09 2.220698e-03 -2.142431e-04 9.975556e-01 -2.204856e-02 9.975492e-01 -2.204021e-02 2.227596e-03 -1.956203e-04
7.100000e+09 2.224166e-03 -2.182555e-04 9.975437e-01 -2.236203e-02 9.975375e-01 -2.235362e-02 2.231105e-03 -1.993955e-04
7.200000e+09 2.227672e-03 -2.223062e-04 9.975316e-01 -2.267544e-02 9.975255e-01 -2.266698e-02 2.234651e-03 -2.032101e-04
7.300000e+09 2.231216e-03 -2.263956e-04 9.975194e-01 -2.298879e-02 9.975135e-01 -2.298028e-02 2.238235e-03 -2.070645e-04
7.400000e+09 2.234796e-03 -2.305241e-04 9.975070e-01 -2.330207e-02 9.975013e-01 -2.329352e-02 2.241856e-03 -2.109591e-04
7.500000e+09 2.238413e-03 -2.346920e-04 9.974945e-01 -2.361530e-02 9.974889e-01 -2.360670e-02 2.245514e-03 -2.148942e-04
7.600000e+09 2.242067e-03 -2.388998e-04 9.974819e-01 -2.392846e-02 9.974764e-01 -2.391982e-02 2.249208e-03 -2.188704e-04
7.700000e+09 2.245756e-03 -2.431478e-04 9.974691e-01 -2.424156e-02 9.974638e-01 -2.423288e-02 2.252938e-03 -2.228879e-04
7.800000e+09 2.249480e-03 -2.474364e-04 9.974561e-01 -2.455460e-02 9.974510e-01 -2.454588e-02 2.256703e-03 -2.269471e-04
7.900000e+09 2.253238e-03 -2.517659e-04 9.974431e-01 -2.486757e-02 9.974381e-01 -2.485882e-02 2.260502e-03 -2.310484e-04
8.000000e+09 2.257031e-03 -2.561366e-04 9.974298e-01 -2.518048e-02 9.974250e-01 -2.517170e-02 2.264336e-03 -2.351922e-04
8.100000e+09 2.260858e-03 -2.605490e-04 9.974165e-01 -2.549333e-02 9.974118e-01 -2.548451e-02 2.268204e-03 -2.393787e-04
8.200000e+09 2.264718e-03 -2.650033e-04 9.974029e-01 -2.580610e-02 9.973984e-01 -2.579726e-02 2.272105e-03 -2.436083e-04
8.300000e+09 2.268611e-03 -2.694999e-04 9.973893e-01 -2.611882e-02 9.973849e-01 -2.610995e-02 2.276039e-03 -2.478814e-04
8.400000e+09 2.272536e-03 -2.740392e-04 9.973755e-01 -2.643146e-02 9.973712e-01 -2.642257e-02 2.280005e-03 -2.521983e-04
8.500000e+09 2.276493e-03 -2.786213e-04 9.973615e-01 -2.674404e-02 9.973575e-01 -2.673513e-02 2.284003e-03 -2.565593e-04
8.600000e+09 2.280481e-03 -2.832468e-04 9.973475e-01 -2.705655e-02 9.973435e-01 -2.704763e-02 2.288032e-03 -2.609647e-04
8.700000e+09 2.284500e-03 -2.879157e-04 9.973332e-01 -2.736900e-02 9.973295e-01 -2.736006e-02 2.292092e-03 -2.654149e-04
8.800000e+09 2.288550e-03 -2.926285e-04 9.973189e-01 -2.768138e-02 9.973153e-01 -2.767243e-02 2.296182e-03 -2.699101e-04
8.900000e+09 2.292629e-03 -2.973855e-04 9.973044e-01 -2.799368e-02 9.973009e-01 -2.798473e-02 2.300302e-03 -2.744506e-04
9.000000e+09 2.296738e-03 -3.021869e-04 9.972898e-01 -2.830592e-02 9.972865e-01 -2.829696e-02 2.304451e-03 -2.790368e-04
9.100000e+09 2.300876e-03 -3.070330e-04 9.972750e-01 -2.861809e-02 9.972719e-01 -2.860912e-02 2.308629e-03 -2.836689e-04
9.200000e+09 2.305042e-03 -3.119242e-04 9.972601e-01 -2.893019e-02 9.972571e-01 -2.892122e-02 2.312835e-03 -2.883472e-04
9.300000e+09 2.309235e-03 -3.168606e-04 9.972451e-01 -2.924222e-02 9.972423e-01 -2.923326e-02 2.317069e-03 -2.930719e-04
9.400000e+09 2.313456e-03 -3.218425e-04 9.972299e-01 -2.955418e-02 9.972272e-01 -2.954522e-02 2.321329e-03 -2.978434e-04
9.500000e+09 2.317704e-03 -3.268702e-04 9.972146e-01 -2.986607e-02 9.972121e-01 -2.985712e-02 2.325617e-03 -3.026619e-04
9.600000e+09 2.321979e-03 -3.319439e-04 9.971992e-01 -3.017789e-02 9.971968e-01 -3.016895e-02 2.329930e-03 -3.075276e-04
9.700000e+09 2.326278e-03 -3.370640e-04 9.971836e-01 -3.048964e-02 9.971814e-01 -3.048071e-02 2.334269e-03 -3.124408e-04
9.800000e+09 2.330604e-03 -3.422305e-04 9.971679e-01 -3.080132e-02 9.971659e-01 -3.079240e-02 2.338633e-03 -3.174017e-04
9.900000e+09 2.334954e-03 -3.474438e-04 9.971521e-01 -3.111292e-02 9.971502e-01 -3.110402e-02 2.343021e-03 -3.224106e-04
1.000000e+10 2.339328e-03 -3.527041e-04 9.971362e-01 -3.142445e-02 9.971345e-01 -3.141557e-02 2.347434e-03 -3.274676e-04
1.010000e+10 2.343726e-03 -3.580115e-04 9.971201e-01 -3.173591e-02 9.971185e-01 -3.172705e-02 2.351869e-03 -3.325731e-04
1.020000e+10 2.348147e-03 -3.633664e-04 9.971039e-01 -3.204730e-02 9.971025e-01 -3.203846e-02 2.356328e-03 -3.377271e-04
1.030000e+10 2.352590e-03 -3.687689e-04 9.970876e-01 -3.235861e-02 9.970863e-01 -3.234981e-02 2.360809e-03 -3.429299e-04
1.040000e+10 2.357056e-03 -3.742191e-04 9.970711e-01 -3.266985e-02 9.970700e-01 -3.266108e-02 2.365311e-03 -3.481818e-04
1.050000e+10 2.361543e-03 -3.797174e-04 9.970545e-01 -3.298102e-02 9.970536e-01 -3.297228e-02 2.369835e-03 -3.534828e-04
1.060000e+10 2.366052e-03 -3.852639e-04 9.970378e-01 -3.329212e-02 9.970371e-01 -3.328341e-02 2.374379e-03 -3.588332e-04
1.070000e+10 2.370580e-03 -3.908587e-04 9.970210e-01 -3.360314e-02 9.970204e-01 -3.359447e-02 2.378943e-03 -3.642332e-04
1.080000e+10 2.375129e-03 -3.965021e-04 9.970041e-01 -3.391409e-02 9.970036e-01 -3.390545e-02 2.383527e-03 -3.696829e-04
1.090000e+10 2.379697e-03 -4.021942e-04 9.969870e-01 -3.422496e-02 9.969867e-01 -3.421637e-02 2.388130e-03 -3.751825e-04
1.100000e+10 2.384284e-03 -4.079351e-04 9.969699e-01 -3.453576e-02 9.969697e-01 -3.452721e-02 2.392752e-03 -3.807321e-04
1.110000e+10 2.388890e-03 -4.137251e-04 9.969526e-01 -3.484648e-02 9.969526e-01 -3.483799e-02 2.397391e-03 -3.863319e-04
1.120000e+10 2.393513e-03 -4.195643e-04 9.969351e-01 -3.515713e-02 9.969353e-01 -3.514869e-02 2.402048e-03 -3.919821e-04
1.130000e+10 2.398153e-03 -4.254527e-04 9.969176e-01 -3.546771e-02 9.969179e-01 -3.545931e-02 2.406721e-03 -3.976827e-04
1.140000e+10 2.402811e-03 -4.313906e-04 9.969000e-01 -3.577821e-02 9.969004e-01 -3.576987e-02 2.411410e-03 -4.034339e-04
1.150000e+10 2.407484e-03 -4.373780e-04 9.968822e-01 -3.608863e-02 9.968828e-01 -3.608035e-02 2.416116e-03 -4.092358e-04
1.160000e+10 2.412173e-03 -4.434152e-04 9.968643e-01 -3.639898e-02 9.968651e-01 -3.639077e-02 2.420836e-03 -4.150886e-04
1.170000e+10 2.416877e-03 -4.495021e-04 9.968463e-01 -3.670926e-02 9.968473e-01 -3.670110e-02 2.425571e-03 -4.209923e-04
1.180000e+10 2.421596e-03 -4.556389e-04 9.968282e-01 -3.701946e-02 9.968293e-01 -3.701137e-02 2.430320e-03 -4.269471e-04
1.190000e+10 2.426329e-03 -4.618258e-04 9.968100e-01 -3.732959e-02 9.968112e-01 -3.732156e-02 2.435082e-03 -4.329530e-04
1.200000e+10 2.431075e-03 -4.680628e-04 9.967917e-01 -3.763964e-02 9.967930e-01 -3.763168e-02 2.439857e-03 -4.390101e-04
1.210000e+10 2.435834e-03 -4.743499e-04 9.967733e-01 -3.794961e-02 9.967748e-01 -3.794173e-02 2.444645e-03 -4.451185e-04
1.220000e+10 2.440606e-03 -4.806874e-04 9.967547e-01 -3.825951e-02 9.967563e-01 -3.825170e-02 2.449444e-03 -4.512784e-04
1.230000e+10 2.445389e-03 -4.870752e-04 9.967361e-01 -3.856934e-02 9.967378e-01 -3.856161e-02 2.454255e-03 -4.574897e-04
1.240000e+10 2.450184e-03 -4.935134e-04 9.967173e-01 -3.887909e-02 9.967192e-01 -3.887143e-02 2.459076e-03 -4.637525e-04
1.250000e+10 2.454990e-03 -5.000021e-04 9.966984e-01 -3.918876e-02 9.967005e-01 -3.918119e-02 2.463907e-03 -4.700668e-04
1.260000e+10 2.459805e-03 -5.065413e-04 9.966794e-01 -3.949836e-02 9.966816e-01 -3.949087e-02 2.468748e-03 -4.764328e-04
1.270000e+10 2.464631e-03 -5.131312e-04 9.966604e-01 -3.980789e-02 9.966627e-01 -3.980048e-02 2.473598e-03 -4.828505e-04
1.280000e+10 2.469465e-03 -5.197717e-04 9.966412e-01 -4.011733e-02 9.966437e-01 -4.011002e-02 2.478456e-03 -4.893198e-04
1.290000e+10 2.474309e-03 -5.264628e-04 9.966219e-01 -4.042671e-02 9.966245e-01 -4.041948e-02 2.483322e-03 -4.958409e-04
1.300000e+10 2.479160e-03 -5.332047e-04 9.966025e-01 -4.073601e-02 9.966052e-01 -4.072887e-02 2.488195e-03 -5.024138e-04
1.310000e+10 2.484019e-03 -5.399973e-04 9.965830e-01 -4.104523e-02 9.965859e-01 -4.103819e-02 2.493076e-03 -5.090384e-04
1.320000e+10 2.488885e-03 -5.468406e-04 9.965634e-01 -4.135438e-02 9.965664e-01 -4.134744e-02 2.497962e-03 -5.157147e-04
1.330000e+10 2.493757e-03 -5.537347e-04 9.965437e-01 -4.166345e-02 9.965468e-01 -4.165661e-02 2.502854e-03 -5.224429e-04
1.340000e+10 2.498635e-03 -5.606796e-04 9.965239e-01 -4.197245e-02 9.965272e-01 -4.196571e-02 2.507752e-03 -5.292228e-04
1.350000e+10 2.503519e-03 -5.676753e-04 9.965040e-01 -4.228138e-02 9.965074e-01 -4.227473e-02 2.512654e-03 -5.360545e-04
1.360000e+10 2.508407e-03 -5.747217e-04 9.964840e-01 -4.259023e-02 9.964875e-01 -4.258369e-02 2.517560e-03 -5.429380e-04
1.370000e+10 2.513300e-03 -5.818188e-04 9.964640e-01 -4.289900e-02 9.964676e-01 -4.289257e-02 2.522469e-03 -5.498731e-04
1.380000e+10 2.518196e-03 -5.889668e-04 9.964438e-01 -4.320771e-02 9.964475e-01 -4.320138e-02 2.527381e-03 -5.568600e-04
1.390000e+10 2.523096e-03 -5.961654e-04 9.964235e-01 -4.351633e-02 9.964273e-01 -4.351012e-02 2.532296e-03 -5.638985e-04
1.400000e+10 2.527999e-03 -6.034147e-04 9.964031e-01 -4.382489e-02 9.964071e-01 -4.381878e-02 2.537213e-03 -5.709887e-04
1.410000e+10 2.532904e-03 -6.107146e-04 9.963826e-01 -4.413337e-02 9.963867e-01 -4.412738e-02 2.542131e-03 -5.781304e-04
1.420000e+10 2.537810e-03 -6.180652e-04 9.963621e-01 -4.444177e-02 9.963663e-01 -4.443590e-02 2.547050e-03 -5.853236e-04
1.430000e+10 2.542718e-03 -6.254663e-04 9.963414e-01 -4.475011e-02 9.963457e-01 -4.474435e-02 2.551970e-03 -5.925683e-04
1.440000e+10 2.547626e-03 -6.329179e-04 9.963207e-01 -4.505837e-02 9.963251e-01 -4.505273e-02 2.556889e-03 -5.998644e-04
1.450000e+10 2.552535e-03 -6.404200e-04 9.962998e-01 -4.536655e-02 9.963044e-01 -4.536103e-02 2.561807e-03 -6.072119e-04
1.460000e+10 2.557443e-03 -6.479725e-04 9.962789e-01 -4.567467e-02 9.962835e-01 -4.566927e-02 2.566724e-03 -6.146106e-04
1.470000e+10 2.562350e-03 -6.555752e-04 9.962579e-01 -4.598271e-02 9.962626e-01 -4.597744e-02 2.571639e-03 -6.220604e-04
1.480000e+10 2.567256e-03 -6.632282e-04 9.962368e-01 -4.629068e-02 9.962416e-01 -4.628553e-02 2.576552e-03 -6.295613e-04
1.490000e+10 2.572159e-03 -6.709314e-04 9.962156e-01 -4.659858e-02 9.962205e-01 -4.659355e-02 2.581462e-03 -6.371132e-04
1.500000e+10 2.577061e-03 -6.786846e-04 9.961943e-01 -4.690640e-02 9.961993e-01 -4.690151e-02 2.586368e-03 -6.447160e-04
1.510000e+10 2.581959e-03 -6.864878e-04 9.961729e-01 -4.721416e-02 9.961781e-01 -4.720939e-02 2.591271e-03 -6.523695e-04
1.520000e+10 2.586854e-03 -6.943409e-04 9.961515e-01 -4.752184e-02 9.961567e-01 -4.751721e-02 2.596169e-03 -6.600738e-04
1.530000e+10 2.591745e-03 -7.022438e-04 9.961299e-01 -4.782945e-02 9.961352e-01 -4.782495e-02 2.601062e-03 -6.678285e-04
1.540000e+10 2.596632e-03 -7.101963e-04 9.961083e-01 -4.813699e-02 9.961137e-01 -4.813263e-02 2.605950e-03 -6.756337e-04
1.550000e+10 2.601514e-03 -7.181983e-04 9.960866e-01 -4.844446e-02 9.960921e-01 -4.844023e-02 2.610832e-03 -6.834892e-04
1.560000e+10 2.606390e-03 -7.262498e-04 9.960648e-01 -4.875186e-02 9.960704e-01 -4.874777e-02 2.615708e-03 -6.913948e-04
1.570000e+10 2.611260e-03 -7.343506e-04 9.960429e-01 -4.905919e-02 9.960486e-01 -4.905524e-02 2.620576e-03 -6.993504e-04
1.580000e+10 2.616124e-03 -7.425006e-04 9.960210e-01 -4.936646e-02 9.960267e-01 -4.936264e-02 2.625438e-03 -7.073559e-04
1.590000e+10 2.620981e-03 -7.506996e-04 9.959989e-01 -4.967365e-02 9.960047e-01 -4.966997e-02 2.630291e-03 -7.154112e-04
1.600000e+10 2.625831e-03 -7.589475e-04 9.959768e-01 -4.998077e-02 9.959827e-01 -4.997724e-02 2.635136e-03 -7.235160e-04
1.610000e+10 2.630672e-03 -7.672441e-04 9.959546e-01 -5.028783e-02 9.959606e-01 -5.028444e-02 2.639972e-03 -7.316702e-04
1.620000e+10 2.635506e-03 -7.755894e-04 9.959323e-01 -5.059481e-02 9.959384e-01 -5.059157e-02 2.644798e-03 -7.398736e-04
1.630000e+10 2.640330e-03 -7.839830e-04 9.959100e-01 -5.090173e-02 9.959161e-01 -5.089863e-02 2.649615e-03 -7.481261e-04
1.640000e+10 2.645146e-03 -7.924250e-04 9.958876e-01 -5.120859e-02 9.958937e-01 -5.120563e-02 2.654421e-03 -7.564275e-04
