#   Hz   S  RI   R   50
!
0.000000e+00 2.391999e-03 0.000000e+00 9.976934e-01 0.000000e+00 9.976935e-01 0.000000e+00 2.382139e-03 0.000000e+00
1.000000e+08 2.392034e-03 -1.864685e-06 9.976932e-01 -3.670944e-04 9.976933e-01 -3.670933e-04 2.382175e-03 -1.625116e-06
2.000000e+08 2.392140e-03 -3.730193e-06 9.976929e-01 -7.341876e-04 9.976930e-01 -7.341854e-04 2.382281e-03 -3.251061e-06
3.000000e+08 2.392316e-03 -5.597347e-06 9.976923e-01 -1.101278e-03 9.976924e-01 -1.101275e-03 2.382459e-03 -4.878663e-06
4.000000e+08 2.392563e-03 -7.466968e-06 9.976915e-01 -1.468365e-03 9.976916e-01 -1.468361e-03 2.382707e-03 -6.508750e-06
5.000000e+08 2.392880e-03 -9.339879e-06 9.976905e-01 -1.835447e-03 9.976906e-01 -1.835441e-03 2.383027e-03 -8.142150e-06
6.000000e+08 2.393268e-03 -1.121690e-05 9.976892e-01 -2.202522e-03 9.976893e-01 -2.202516e-03 2.383417e-03 -9.779691e-06
7.000000e+08 2.393726e-03 -1.309886e-05 9.976877e-01 -2.569590e-03 9.976878e-01 -2.569582e-03 2.383879e-03 -1.142220e-05
8.000000e+08 2.394254e-03 -1.498656e-05 9.976859e-01 -2.936649e-03 9.976860e-01 -2.936640e-03 2.384411e-03 -1.307050e-05
9.000000e+08 2.394852e-03 -1.688084e-05 9.976840e-01 -3.303698e-03 9.976841e-01 -3.303688e-03 2.385014e-03 -1.472542e-05
1.000000e+09 2.395521e-03 -1.878250e-05 9.976818e-01 -3.670735e-03 9.976819e-01 -3.670724e-03 2.385687e-03 -1.638777e-05
1.100000e+09 2.396259e-03 -2.069237e-05 9.976793e-01 -4.037760e-03 9.976794e-01 -4.037748e-03 2.386431e-03 -1.805840e-05
1.200000e+09 2.397068e-03 -2.261126e-05 9.976767e-01 -4.404771e-03 9.976768e-01 -4.404758e-03 2.387246e-03 -1.973810e-05
1.300000e+09 2.397946e-03 -2.453998e-05 9.976738e-01 -4.771767e-03 9.976739e-01 -4.771752e-03 2.388130e-03 -2.142771e-05
1.400000e+09 2.398894e-03 -2.647935e-05 9.976707e-01 -5.138746e-03 9.976707e-01 -5.138730e-03 2.389085e-03 -2.312804e-05
1.500000e+09 2.399912e-03 -2.843018e-05 9.976673e-01 -5.505708e-03 9.976674e-01 -5.505691e-03 2.390110e-03 -2.483991e-05
1.600000e+09 2.400998e-03 -3.039326e-05 9.976637e-01 -5.872651e-03 9.976638e-01 -5.872633e-03 2.391205e-03 -2.656413e-05
1.700000e+09 2.402155e-03 -3.236942e-05 9.976599e-01 -6.239573e-03 9.976600e-01 -6.239554e-03 2.392370e-03 -2.830152e-05
1.800000e+09 2.403380e-03 -3.435946e-05 9.976559e-01 -6.606475e-03 9.976559e-01 -6.606454e-03 2.393604e-03 -3.005287e-05
1.900000e+09 2.404674e-03 -3.636416e-05 9.976516e-01 -6.973353e-03 9.976517e-01 -6.973332e-03 2.394908e-03 -3.181901e-05
2.000000e+09 2.406037e-03 -3.838435e-05 9.976471e-01 -7.340208e-03 9.976472e-01 -7.340185e-03 2.396281e-03 -3.360073e-05
2.100000e+09 2.407468e-03 -4.042080e-05 9.976424e-01 -7.707038e-03 9.976424e-01 -7.707014e-03 2.397723e-03 -3.539884e-05
2.200000e+09 2.408968e-03 -4.247433e-05 9.976374e-01 -8.073842e-03 9.976375e-01 -8.073816e-03 2.399233e-03 -3.721414e-05
2.300000e+09 2.410535e-03 -4.454570e-05 9.976322e-01 -8.440618e-03 9.976323e-01 -8.440591e-03 2.400813e-03 -3.904742e-05
2.400000e+09 2.412171e-03 -4.663573e-05 9.976268e-01 -8.807365e-03 9.976269e-01 -8.807337e-03 2.402460e-03 -4.089948e-05
2.500000e+09 2.413874e-03 -4.874518e-05 9.976212e-01 -9.174083e-03 9.976212e-01 -9.174053e-03 2.404176e-03 -4.277111e-05
2.600000e+09 2.415645e-03 -5.087484e-05 9.976153e-01 -9.540769e-03 9.976154e-01 -9.540738e-03 2.405960e-03 -4.466309e-05
2.700000e+09 2.417483e-03 -5.302549e-05 9.976092e-01 -9.907423e-03 9.976093e-01 -9.907391e-03 2.407812e-03 -4.657621e-05
2.800000e+09 2.419388e-03 -5.519791e-05 9.976029e-01 -1.027404e-02 9.976029e-01 -1.027401e-02 2.409730e-03 -4.851125e-05
2.900000e+09 2.421359e-03 -5.739286e-05 9.975963e-01 -1.064063e-02 9.975964e-01 -1.064059e-02 2.411716e-03 -5.046899e-05
3.000000e+09 2.423397e-03 -5.961112e-05 9.975896e-01 -1.100718e-02 9.975896e-01 -1.100714e-02 2.413769e-03 -5.245020e-05
3.100000e+09 2.425501e-03 -6.185344e-05 9.975826e-01 -1.137369e-02 9.975826e-01 -1.137366e-02 2.415888e-03 -5.445564e-05
3.200000e+09 2.427670e-03 -6.412059e-05 9.975754e-01 -1.174017e-02 9.975754e-01 -1.174013e-02 2.418074e-03 -5.648609e-05
3.300000e+09 2.429905e-03 -6.641332e-05 9.975679e-01 -1.210660e-02 9.975679e-01 -1.210656e-02 2.420326e-03 -5.854230e-05
3.400000e+09 2.432205e-03 -6.873238e-05 9.975602e-01 -1.247300e-02 9.975603e-01 -1.247296e-02 2.422643e-03 -6.062503e-05
3.500000e+09 2.434570e-03 -7.107852e-05 9.975524e-01 -1.283935e-02 9.975524e-01 -1.283931e-02 2.425025e-03 -6.273504e-05
3.600000e+09 2.437000e-03 -7.345248e-05 9.975442e-01 -1.320566e-02 9.975443e-01 -1.320562e-02 2.427473e-03 -6.487306e-05
3.700000e+09 2.439493e-03 -7.585500e-05 9.975359e-01 -1.357193e-02 9.975359e-01 -1.357188e-02 2.429985e-03 -6.703985e-05
3.800000e+09 2.442050e-03 -7.828681e-05 9.975274e-01 -1.393815e-02 9.975274e-01 -1.393811e-02 2.432561e-03 -6.923614e-05
3.900000e+09 2.444671e-03 -8.074864e-05 9.975186e-01 -1.430433e-02 9.975186e-01 -1.430428e-02 2.435201e-03 -7.146266e-05
4.000000e+09 2.447355e-03 -8.324121e-05 9.975096e-01 -1.467046e-02 9.975096e-01 -1.467041e-02 2.437905e-03 -7.372014e-05
4.100000e+09 2.450101e-03 -8.576524e-05 9.975004e-01 -1.503654e-02 9.975004e-01 -1.503649e-02 2.440672e-03 -7.600931e-05
4.200000e+09 2.452910e-03 -8.832145e-05 9.974909e-01 -1.540257e-02 9.974909e-01 -1.540252e-02 2.443501e-03 -7.833089e-05
4.300000e+09 2.455781e-03 -9.091054e-05 9.974813e-01 -1.576855e-02 9.974813e-01 -1.576850e-02 2.446393e-03 -8.068558e-05
4.400000e+09 2.458713e-03 -9.353321e-05 9.974714e-01 -1.613448e-02 9.974714e-01 -1.613442e-02 2.449347e-03 -8.307409e-05
4.500000e+09 2.461706e-03 -9.619017e-05 9.974613e-01 -1.650036e-02 9.974613e-01 -1.650030e-02 2.452363e-03 -8.549713e-05
4.600000e+09 2.464760e-03 -9.888209e-05 9.974510e-01 -1.686618e-02 9.974510e-01 -1.686612e-02 2.455439e-03 -8.795540e-05
4.700000e+09 2.467874e-03 -1.016097e-04 9.974405e-01 -1.723195e-02 9.974405e-01 -1.723189e-02 2.458577e-03 -9.044957e-05
4.800000e+09 2.471048e-03 -1.043736e-04 9.974298e-01 -1.759767e-02 9.974297e-01 -1.759760e-02 2.461774e-03 -9.298034e-05
4.900000e+09 2.474281e-03 -1.071745e-04 9.974188e-01 -1.796332e-02 9.974188e-01 -1.796326e-02 2.465032e-03 -9.554838e-05
5.000000e+09 2.477573e-03 -1.100131e-04 9.974077e-01 -1.832892e-02 9.974076e-01 -1.832885e-02 2.468349e-03 -9.815437e-05
5.100000e+09 2.480924e-03 -1.128900e-04 9.973963e-01 -1.869446e-02 9.973962e-01 -1.869439e-02 2.471724e-03 -1.007990e-04
5.200000e+09 2.484333e-03 -1.158060e-04 9.973847e-01 -1.905995e-02 9.973847e-01 -1.905987e-02 2.475158e-03 -1.034828e-04
5.300000e+09 2.487799e-03 -1.187615e-04 9.973729e-01 -1.942537e-02 9.973729e-01 -1.942529e-02 2.478650e-03 -1.062066e-04
5.400000e+09 2.491322e-03 -1.217574e-04 9.973609e-01 -1.979073e-02 9.973608e-01 -1.979065e-02 2.482200e-03 -1.089710e-04
5.500000e+09 2.494902e-03 -1.247942e-04 9.973487e-01 -2.015602e-02 9.973486e-01 -2.015594e-02 2.485806e-03 -1.117766e-04
5.600000e+09 2.498537e-03 -1.278725e-04 9.973363e-01 -2.052126e-02 9.973362e-01 -2.052117e-02 2.489469e-03 -1.146240e-04
5.700000e+09 2.502229e-03 -1.309930e-04 9.973237e-01 -2.088643e-02 9.973236e-01 -2.088634e-02 2.493188e-03 -1.175140e-04
5.800000e+09 2.505975e-03 -1.341563e-04 9.973108e-01 -2.125153e-02 9.973107e-01 -2.125144e-02 2.496963e-03 -1.204470e-04
5.900000e+09 2.509776e-03 -1.373630e-04 9.972978e-01 -2.161657e-02 9.972977e-01 -2.161648e-02 2.500792e-03 -1.234237e-04
6.000000e+09 2.513631e-03 -1.406136e-04 9.972845e-01 -2.198154e-02 9.972844e-01 -2.198145e-02 2.504676e-03 -1.264447e-04
6.100000e+09 2.517539e-03 -1.439089e-04 9.972711e-01 -2.234644e-02 9.972709e-01 -2.234635e-02 2.508613e-03 -1.295106e-04
6.200000e+09 2.521500e-03 -1.472494e-04 9.972574e-01 -2.271128e-02 9.972573e-01 -2.271118e-02 2.512604e-03 -1.326221e-04
6.300000e+09 2.525514e-03 -1.506356e-04 9.972435e-01 -2.307604e-02 9.972434e-01 -2.307594e-02 2.516648e-03 -1.357796e-04
6.400000e+09 2.529579e-03 -1.540681e-04 9.972295e-01 -2.344074e-02 9.972293e-01 -2.344063e-02 2.520744e-03 -1.389838e-04
6.500000e+09 2.533696e-03 -1.575476e-04 9.972152e-01 -2.380536e-02 9.972150e-01 -2.380526e-02 2.524892e-03 -1.422353e-04
6.600000e+09 2.537863e-03 -1.610745e-04 9.972007e-01 -2.416991e-02 9.972006e-01 -2.416980e-02 2.529091e-03 -1.455345e-04
6.700000e+09 2.542081e-03 -1.646494e-04 9.971861e-01 -2.453439e-02 9.971859e-01 -2.453428e-02 2.533340e-03 -1.488821e-04
6.800000e+09 2.546348e-03 -1.682728e-04 9.971712e-01 -2.489880e-02 9.971710e-01 -2.489868e-02 2.537639e-03 -1.522786e-04
6.900000e+09 2.550664e-03 -1.719454e-04 9.971561e-01 -2.526313e-02 9.971559e-01 -2.526301e-02 2.541988e-03 -1.557245e-04
7.000000e+09 2.555029e-03 -1.756676e-04 9.971409e-01 -2.562738e-02 9.971407e-01 -2.562726e-02 2.546386e-03 -1.592205e-04
7.100000e+09 2.559441e-03 -1.794399e-04 9.971254e-01 -2.599156e-02 9.971252e-01 -2.599144e-02 2.550832e-03 -1.627669e-04
7.200000e+09 2.563900e-03 -1.832628e-04 9.971098e-01 -2.635566e-02 9.971096e-01 -2.635554e-02 2.555325e-03 -1.663643e-04
7.300000e+09 2.568407e-03 -1.871369e-04 9.970939e-01 -2.671969e-02 9.970937e-01 -2.671956e-02 2.559865e-03 -1.700132e-04
7.400000e+09 2.572959e-03 -1.910627e-04 9.970779e-01 -2.708364e-02 9.970777e-01 -2.708350e-02 2.564452e-03 -1.737142e-04
7.500000e+09 2.577556e-03 -1.950405e-04 9.970617e-01 -2.744750e-02 9.970614e-01 -2.744737e-02 2.569084e-03 -1.774677e-04
7.600000e+09 2.582199e-03 -1.990710e-04 9.970452e-01 -2.781129e-02 9.970450e-01 -2.781116e-02 2.573762e-03 -1.812742e-04
7.700000e+09 2.586885e-03 -2.031546e-04 9.970286e-01 -2.817500e-02 9.970284e-01 -2.817486e-02 2.578484e-03 -1.851341e-04
7.800000e+09 2.591615e-03 -2.072918e-04 9.970118e-01 -2.853863e-02 9.970115e-01 -2.853849e-02 2.583250e-03 -1.890480e-04
7.900000e+09 2.596388e-03 -2.114829e-04 9.969948e-01 -2.890218e-02 9.969945e-01 -2.890203e-02 2.588060e-03 -1.930163e-04
8.000000e+09 2.601204e-03 -2.157285e-04 9.969777e-01 -2.926564e-02 9.969774e-01 -2.926549e-02 2.592912e-03 -1.970394e-04
8.100000e+09 2.606060e-03 -2.200290e-04 9.969603e-01 -2.962902e-02 9.969600e-01 -2.962887e-02 2.597805e-03 -2.011178e-04
8.200000e+09 2.610958e-03 -2.243848e-04 9.969427e-01 -2.999232e-02 9.969424e-01 -2.999217e-02 2.602741e-03 -2.052520e-04
8.300000e+09 2.615896e-03 -2.287964e-04 9.969250e-01 -3.035554e-02 9.969247e-01 -3.035538e-02 2.607717e-03 -2.094423e-04
8.400000e+09 2.620874e-03 -2.332641e-04 9.969071e-01 -3.071867e-02 9.969068e-01 -3.071850e-02 2.612732e-03 -2.136892e-04
8.500000e+09 2.625891e-03 -2.377884e-04 9.968890e-01 -3.108171e-02 9.968886e-01 -3.108155e-02 2.617788e-03 -2.179930e-04
8.600000e+09 2.630946e-03 -2.423697e-04 9.968707e-01 -3.144467e-02 9.968704e-01 -3.144450e-02 2.622882e-03 -2.223542e-04
8.700000e+09 2.636039e-03 -2.470083e-04 9.968522e-01 -3.180755e-02 9.968519e-01 -3.180737e-02 2.628013e-03 -2.267732e-04
8.800000e+09 2.641169e-03 -2.517046e-04 9.968336e-01 -3.217033e-02 9.968332e-01 -3.217016e-02 2.633183e-03 -2.312503e-04
8.900000e+09 2.646335e-03 -2.564590e-04 9.968148e-01 -3.253303e-02 9.968144e-01 -3.253285e-02 2.638389e-03 -2.357860e-04
9.000000e+09 2.651537e-03 -2.612719e-04 9.967958e-01 -3.289565e-02 9.967954e-01 -3.289546e-02 2.643631e-03 -2.403805e-04
9.100000e+09 2.656774e-03 -2.661436e-04 9.967766e-01 -3.325817e-02 9.967762e-01 -3.325798e-02 2.648908e-03 -2.450343e-04
9.200000e+09 2.662045e-03 -2.710744e-04 9.967573e-01 -3.362061e-02 9.967569e-01 -3.362042e-02 2.654219e-03 -2.497476e-04
9.300000e+09 2.667349e-03 -2.760647e-04 9.967377e-01 -3.398296e-02 9.967373e-01 -3.398276e-02 2.659565e-03 -2.545209e-04
9.400000e+09 2.672687e-03 -2.811149e-04 9.967180e-01 -3.434521e-02 9.967176e-01 -3.434502e-02 2.664944e-03 -2.593545e-04
9.500000e+09 2.678057e-03 -2.862252e-04 9.966982e-01 -3.470738e-02 9.966977e-01 -3.470718e-02 2.670356e-03 -2.642486e-04
9.600000e+09 2.683458e-03 -2.913959e-04 9.966781e-01 -3.506946e-02 9.966777e-01 -3.506925e-02 2.675799e-03 -2.692035e-04
9.700000e+09 2.688891e-03 -2.966274e-04 9.966579e-01 -3.543145e-02 9.966575e-01 -3.543124e-02 2.681273e-03 -2.742197e-04
9.800000e+09 2.694353e-03 -3.019199e-04 9.966376e-01 -3.579335e-02 9.966371e-01 -3.579313e-02 2.686778e-03 -2.792974e-04
9.900000e+09 2.699845e-03 -3.072737e-04 9.966170e-01 -3.615515e-02 9.966165e-01 -3.615493e-02 2.692313e-03 -2.844368e-04
1.000000e+10 2.705366e-03 -3.126891e-04 9.965963e-01 -3.651687e-02 9.965958e-01 -3.651664e-02 2.697876e-03 -2.896383e-04
1.010000e+10 2.710914e-03 -3.181664e-04 9.965754e-01 -3.687849e-02 9.965749e-01 -3.687826e-02 2.703468e-03 -2.949020e-04
1.020000e+10 2.716490e-03 -3.237058e-04 9.965544e-01 -3.724002e-02 9.965539e-01 -3.723979e-02 2.709088e-03 -3.002284e-04
1.030000e+10 2.722093e-03 -3.293075e-04 9.965332e-01 -3.760146e-02 9.965327e-01 -3.760122e-02 2.714734e-03 -3.056175e-04
1.040000e+10 2.727721e-03 -3.349718e-04 9.965118e-01 -3.796280e-02 9.965113e-01 -3.796256e-02 2.720407e-03 -3.110697e-04
1.050000e+10 2.733375e-03 -3.406989e-04 9.964903e-01 -3.832406e-02 9.964897e-01 -3.832381e-02 2.726104e-03 -3.165852e-04
1.060000e+10 2.739053e-03 -3.464891e-04 9.964686e-01 -3.868522e-02 9.964680e-01 -3.868497e-02 2.731827e-03 -3.221641e-04
1.070000e+10 2.744755e-03 -3.523425e-04 9.964467e-01 -3.904628e-02 9.964462e-01 -3.904603e-02 2.737574e-03 -3.278068e-04
1.080000e+10 2.750480e-03 -3.582594e-04 9.964247e-01 -3.940725e-02 9.964242e-01 -3.940700e-02 2.743344e-03 -3.335134e-04
1.090000e+10 2.756227e-03 -3.642399e-04 9.964026e-01 -3.976813e-02 9.964020e-01 -3.976787e-02 2.749137e-03 -3.392842e-04
1.100000e+10 2.761996e-03 -3.702843e-04 9.963802e-01 -4.012892e-02 9.963796e-01 -4.012865e-02 2.754951e-03 -3.451192e-04
1.110000e+10 2.767786e-03 -3.763926e-04 9.963578e-01 -4.048961e-02 9.963572e-01 -4.048934e-02 2.760787e-03 -3.510186e-04
1.120000e+10 2.773596e-03 -3.825652e-04 9.963351e-01 -4.085020e-02 9.963345e-01 -4.084993e-02 2.766642e-03 -3.569828e-04
1.130000e+10 2.779426e-03 -3.888020e-04 9.963123e-01 -4.121070e-02 9.963117e-01 -4.121042e-02 2.772518e-03 -3.630117e-04
1.140000e+10 2.785274e-03 -3.951033e-04 9.962894e-01 -4.157111e-02 9.962888e-01 -4.157082e-02 2.778413e-03 -3.691055e-04
1.150000e+10 2.791140e-03 -4.014692e-04 9.962663e-01 -4.193142e-02 9.962657e-01 -4.193113e-02 2.784326e-03 -3.752645e-04
1.160000e+10 2.797024e-03 -4.078999e-04 9.962431e-01 -4.229164e-02 9.962424e-01 -4.229134e-02 2.790256e-03 -3.814887e-04
1.170000e+10 2.802924e-03 -4.143954e-04 9.962197e-01 -4.265176e-02 9.962190e-01 -4.265146e-02 2.796203e-03 -3.877782e-04
1.180000e+10 2.808840e-03 -4.209559e-04 9.961962e-01 -4.301179e-02 9.961955e-01 -4.301148e-02 2.802166e-03 -3.941331e-04
1.190000e+10 2.814771e-03 -4.275815e-04 9.961725e-01 -4.337172e-02 9.961718e-01 -4.337141e-02 2.808145e-03 -4.005536e-04
1.200000e+10 2.820717e-03 -4.342722e-04 9.961487e-01 -4.373155e-02 9.961480e-01 -4.373124e-02 2.814138e-03 -4.070398e-04
1.210000e+10 2.826676e-03 -4.410282e-04 9.961247e-01 -4.409130e-02 9.961240e-01 -4.409098e-02 2.820145e-03 -4.135917e-04
1.220000e+10 2.832648e-03 -4.478495e-04 9.961006e-01 -4.445094e-02 9.960999e-01 -4.445062e-02 2.826165e-03 -4.202094e-04
1.230000e+10 2.838633e-03 -4.547362e-04 9.960763e-01 -4.481049e-02 9.960756e-01 -4.481016e-02 2.832197e-03 -4.268930e-04
1.240000e+10 2.844629e-03 -4.616884e-04 9.960519e-01 -4.516995e-02 9.960512e-01 -4.516962e-02 2.838242e-03 -4.336426e-04
1.250000e+10 2.850635e-03 -4.687061e-04 9.960274e-01 -4.552931e-02 9.960266e-01 -4.552897e-02 2.844297e-03 -4.404581e-04
1.260000e+10 2.856652e-03 -4.757894e-04 9.960027e-01 -4.588858e-02 9.960020e-01 -4.588823e-02 2.850362e-03 -4.473397e-04
1.270000e+10 2.862679e-03 -4.829382e-04 9.959779e-01 -4.624775e-02 9.959771e-01 -4.624740e-02 2.856437e-03 -4.542874e-04
1.280000e+10 2.868714e-03 -4.901527e-04 9.959530e-01 -4.660682e-02 9.959522e-01 -4.660647e-02 2.862521e-03 -4.613011e-04
1.290000e+10 2.874757e-03 -4.974327e-04 9.959279e-01 -4.696580e-02 9.959271e-01 -4.696544e-02 2.868613e-03 -4.683810e-04
1.300000e+10 2.880807e-03 -5.047785e-04 9.959027e-01 -4.732469e-02 9.959018e-01 -4.732432e-02 2.874713e-03 -4.755270e-04
1.310000e+10 2.886864e-03 -5.121898e-04 9.958773e-01 -4.768348e-02 9.958765e-01 -4.768311e-02 2.880819e-03 -4.827391e-04
1.320000e+10 2.892926e-03 -5.196668e-04 9.958518e-01 -4.804217e-02 9.958510e-01 -4.804180e-02 2.886931e-03 -4.900173e-04
1.330000e+10 2.898994e-03 -5.272094e-04 9.958262e-01 -4.840078e-02 9.958253e-01 -4.840040e-02 2.893048e-03 -4.973617e-04
1.340000e+10 2.905066e-03 -5.348175e-04 9.958004e-01 -4.875928e-02 9.957996e-01 -4.875890e-02 2.899170e-03 -5.047721e-04
1.350000e+10 2.911142e-03 -5.424912e-04 9.957746e-01 -4.911770e-02 9.957737e-01 -4.911731e-02 2.905296e-03 -5.122485e-04
1.360000e+10 2.917221e-03 -5.502305e-04 9.957485e-01 -4.947602e-02 9.957477e-01 -4.947562e-02 2.911424e-03 -5.197909e-04
1.370000e+10 2.923302e-03 -5.580351e-04 9.957224e-01 -4.983424e-02 9.957215e-01 -4.983384e-02 2.917556e-03 -5.273993e-04
1.380000e+10 2.929385e-03 -5.659052e-04 9.956961e-01 -5.019237e-02 9.956952e-01 -5.019197e-02 2.923689e-03 -5.350736e-04
1.390000e+10 2.935469e-03 -5.738406e-04 9.956697e-01 -5.055041e-02 9.956688e-01 -5.055000e-02 2.929823e-03 -5.428136e-04
1.400000e+10 2.941553e-03 -5.818413e-04 9.956432e-01 -5.090836e-02 9.956423e-01 -5.090794e-02 2.935957e-03 -5.506195e-04
1.410000e+10 2.947636e-03 -5.899071e-04 9.956166e-01 -5.126621e-02 9.956157e-01 -5.126579e-02 2.942091e-03 -5.584909e-04
1.420000e+10 2.953719e-03 -5.980380e-04 9.955898e-01 -5.162397e-02 9.955889e-01 -5.162354e-02 2.948224e-03 -5.664280e-04
1.430000e+10 2.959799e-03 -6.062339e-04 9.955629e-01 -5.198164e-02 9.955620e-01 -5.198120e-02 2.954355e-03 -5.744305e-04
1.440000e+10 2.965877e-03 -6.144947e-04 9.955359e-01 -5.233921e-02 9.955350e-01 -5.233877e-02 2.960484e-03 -5.824984e-04
1.450000e+10 2.971952e-03 -6.228202e-04 9.955088e-01 -5.269670e-02 9.955078e-01 -5.269625e-02 2.966610e-03 -5.906315e-04
1.460000e+10 2.978023e-03 -6.312104e-04 9.954815e-01 -5.305409e-02 9.954806e-01 -5.305363e-02 2.972731e-03 -5.988297e-04
1.470000e+10 2.984090e-03 -6.396650e-04 9.954542e-01 -5.341139e-02 9.954532e-01 -5.341093e-02 2.978849e-03 -6.070930e-04
1.480000e+10 2.990151e-03 -6.481841e-04 9.954267e-01 -5.376860e-02 9.954257e-01 -5.376813e-02 2.984961e-03 -6.154211e-04
1.490000e+10 2.996207e-03 -6.567674e-04 9.953991e-01 -5.412572e-02 9.953981e-01 -5.412525e-02 2.991068e-03 -6.238139e-04
1.500000e+10 3.002256e-03 -6.654147e-04 9.953714e-01 -5.448275e-02 9.953703e-01 -5.448227e-02 2.997168e-03 -6.322712e-04
1.510000e+10 3.008298e-03 -6.741260e-04 9.953435e-01 -5.483968e-02 9.953425e-01 -5.483920e-02 3.003261e-03 -6.407930e-04
1.520000e+10 3.014331e-03 -6.829010e-04 9.953156e-01 -5.519653e-02 9.953145e-01 -5.519604e-02 3.009346e-03 -6.493789e-04
1.530000e+10 3.020357e-03 -6.917396e-04 9.952875e-01 -5.555329e-02 9.952865e-01 -5.555280e-02 3.015422e-03 -6.580290e-04
1.540000e+10 3.026373e-03 -7.006416e-04 9.952593e-01 -5.590996e-02 9.952583e-01 -5.590946e-02 3.021490e-03 -6.667429e-04
1.550000e+10 3.032380e-03 -7.096068e-04 9.952311e-01 -5.626654e-02 9.952300e-01 -5.626604e-02 3.027548e-03 -6.755204e-04
1.560000e+10 3.038376e-03 -7.186350e-04 9.952027e-01 -5.662304e-02 9.952016e-01 -5.662253e-02 3.033595e-03 -6.843615e-04
1.570000e+10 3.044361e-03 -7.277259e-04 9.951742e-01 -5.697945e-02 9.951731e-01 -5.697893e-02 3.039632e-03 -6.932658e-04
1.580000e+10 3.050334e-03 -7.368795e-04 9.951455e-01 -5.733576e-02 9.951444e-01 -5.733524e-02 3.045656e-03 -7.022332e-04
1.590000e+10 3.056295e-03 -7.460955e-04 9.951168e-01 -5.769200e-02 9.951157e-01 -5.769147e-02 3.051669e-03 -7.112635e-04
1.600000e+10 3.062244e-03 -7.553736e-04 9.950880e-01 -5.804814e-02 9.950869e-01 -5.804761e-02 3.057668e-03 -7.203563e-04
1.610000e+10 3.068178e-03 -7.647137e-04 9.950591e-01 -5.840420e-02 9.950579e-01 -5.840366e-02 3.063654e-03 -7.295116e-04
1.620000e+10 3.074099e-03 -7.741154e-04 9.950300e-01 -5.876018e-02 9.950289e-01 -5.875963e-02 3.069626e-03 -7.387290e-04
1.630000e+10 3.080004e-03 -7.835786e-04 9.950009e-01 -5.911607e-02 9.949997e-01 -5.911551e-02 3.075583e-03 -7.480083e-04
1.640000e+10 3.085894e-03 -7.931029e-04 9.949716e-01 -5.947187e-02 9.949704e-01 -5.947131e-02 3.081525e-03 -7.573493e-04
