#   Hz   S  RI   R   50
!
0.000000e+00 2.648229e-03 0.000000e+00 9.974173e-01 0.000000e+00 9.974291e-01 0.000000e+00 2.656457e-03 0.000000e+00
1.000000e+08 2.648274e-03 -1.093116e-06 9.974172e-01 -4.163041e-04 9.974289e-01 -4.165268e-04 2.656500e-03 -1.048598e-06
2.000000e+08 2.648408e-03 -2.187317e-06 9.974167e-01 -8.326067e-04 9.974285e-01 -8.330519e-04 2.656630e-03 -2.098239e-06
3.000000e+08 2.648632e-03 -3.283688e-06 9.974160e-01 -1.248906e-03 9.974277e-01 -1.249574e-03 2.656848e-03 -3.149966e-06
4.000000e+08 2.648945e-03 -4.383314e-06 9.974150e-01 -1.665201e-03 9.974267e-01 -1.666090e-03 2.657152e-03 -4.204821e-06
5.000000e+08 2.649348e-03 -5.487278e-06 9.974137e-01 -2.081489e-03 9.974254e-01 -2.082601e-03 2.657542e-03 -5.263845e-06
6.000000e+08 2.649840e-03 -6.596664e-06 9.974121e-01 -2.497769e-03 9.974238e-01 -2.499102e-03 2.658020e-03 -6.328081e-06
7.000000e+08 2.650421e-03 -7.712553e-06 9.974102e-01 -2.914039e-03 9.974218e-01 -2.915594e-03 2.658584e-03 -7.398568e-06
8.000000e+08 2.651092e-03 -8.836027e-06 9.974080e-01 -3.330299e-03 9.974196e-01 -3.332074e-03 2.659235e-03 -8.476345e-06
9.000000e+08 2.651852e-03 -9.968166e-06 9.974055e-01 -3.746545e-03 9.974171e-01 -3.748541e-03 2.659972e-03 -9.562449e-06
1.000000e+09 2.652701e-03 -1.111005e-05 9.974028e-01 -4.162777e-03 9.974143e-01 -4.164992e-03 2.660796e-03 -1.065792e-05
1.100000e+09 2.653638e-03 -1.226275e-05 9.973997e-01 -4.578993e-03 9.974112e-01 -4.581427e-03 2.661706e-03 -1.176379e-05
1.200000e+09 2.654665e-03 -1.342734e-05 9.973964e-01 -4.995192e-03 9.974079e-01 -4.997844e-03 2.662702e-03 -1.288109e-05
1.300000e+09 2.655780e-03 -1.460490e-05 9.973928e-01 -5.411371e-03 9.974042e-01 -5.414240e-03 2.663783e-03 -1.401085e-05
1.400000e+09 2.656983e-03 -1.579649e-05 9.973888e-01 -5.827530e-03 9.974002e-01 -5.830615e-03 2.664951e-03 -1.515410e-05
1.500000e+09 2.658274e-03 -1.700318e-05 9.973846e-01 -6.243666e-03 9.973959e-01 -6.246967e-03 2.666204e-03 -1.631187e-05
1.600000e+09 2.659654e-03 -1.822605e-05 9.973801e-01 -6.659779e-03 9.973914e-01 -6.663293e-03 2.667543e-03 -1.748518e-05
1.700000e+09 2.661121e-03 -1.946614e-05 9.973754e-01 -7.075866e-03 9.973865e-01 -7.079594e-03 2.668967e-03 -1.867506e-05
1.800000e+09 2.662676e-03 -2.072451e-05 9.973703e-01 -7.491926e-03 9.973814e-01 -7.495866e-03 2.670476e-03 -1.988251e-05
1.900000e+09 2.664318e-03 -2.200223e-05 9.973649e-01 -7.907957e-03 9.973760e-01 -7.912108e-03 2.672070e-03 -2.110855e-05
2.000000e+09 2.666047e-03 -2.330034e-05 9.973593e-01 -8.323958e-03 9.973703e-01 -8.328319e-03 2.673748e-03 -2.235421e-05
2.100000e+09 2.667863e-03 -2.461989e-05 9.973534e-01 -8.739928e-03 9.973643e-01 -8.744496e-03 2.675510e-03 -2.362047e-05
2.200000e+09 2.669766e-03 -2.596193e-05 9.973471e-01 -9.155865e-03 9.973580e-01 -9.160639e-03 2.677357e-03 -2.490836e-05
2.300000e+09 2.671755e-03 -2.732749e-05 9.973406e-01 -9.571766e-03 9.973514e-01 -9.576746e-03 2.679287e-03 -2.621886e-05
2.400000e+09 2.673829e-03 -2.871762e-05 9.973339e-01 -9.987632e-03 9.973445e-01 -9.992815e-03 2.681301e-03 -2.755298e-05
2.500000e+09 2.675990e-03 -3.013333e-05 9.973268e-01 -1.040346e-02 9.973373e-01 -1.040884e-02 2.683398e-03 -2.891171e-05
2.600000e+09 2.678235e-03 -3.157567e-05 9.973194e-01 -1.081925e-02 9.973299e-01 -1.082483e-02 2.685578e-03 -3.029603e-05
2.700000e+09 2.680566e-03 -3.304565e-05 9.973118e-01 -1.123500e-02 9.973221e-01 -1.124078e-02 2.687840e-03 -3.170694e-05
2.800000e+09 2.682981e-03 -3.454428e-05 9.973039e-01 -1.165070e-02 9.973141e-01 -1.165668e-02 2.690185e-03 -3.314540e-05
2.900000e+09 2.685480e-03 -3.607258e-05 9.972957e-01 -1.206636e-02 9.973058e-01 -1.207254e-02 2.692611e-03 -3.461240e-05
3.000000e+09 2.688063e-03 -3.763156e-05 9.972872e-01 -1.248198e-02 9.972972e-01 -1.248835e-02 2.695119e-03 -3.610890e-05
3.100000e+09 2.690730e-03 -3.922222e-05 9.972784e-01 -1.289755e-02 9.972883e-01 -1.290411e-02 2.697708e-03 -3.763587e-05
3.200000e+09 2.693480e-03 -4.084555e-05 9.972693e-01 -1.331307e-02 9.972791e-01 -1.331982e-02 2.700377e-03 -3.919426e-05
3.300000e+09 2.696312e-03 -4.250254e-05 9.972600e-01 -1.372854e-02 9.972697e-01 -1.373548e-02 2.703127e-03 -4.078503e-05
3.400000e+09 2.699226e-03 -4.419418e-05 9.972504e-01 -1.414396e-02 9.972599e-01 -1.415108e-02 2.705957e-03 -4.240912e-05
3.500000e+09 2.702222e-03 -4.592144e-05 9.972405e-01 -1.455933e-02 9.972499e-01 -1.456663e-02 2.708866e-03 -4.406749e-05
3.600000e+09 2.705300e-03 -4.768529e-05 9.972303e-01 -1.497465e-02 9.972396e-01 -1.498213e-02 2.711854e-03 -4.576105e-05
3.700000e+09 2.708458e-03 -4.948670e-05 9.972199e-01 -1.538991e-02 9.972290e-01 -1.539756e-02 2.714921e-03 -4.749075e-05
3.800000e+09 2.711697e-03 -5.132663e-05 9.972092e-01 -1.580511e-02 9.972182e-01 -1.581294e-02 2.718066e-03 -4.925751e-05
3.900000e+09 2.715015e-03 -5.320602e-05 9.971982e-01 -1.622025e-02 9.972070e-01 -1.622826e-02 2.721289e-03 -5.106224e-05
4.000000e+09 2.718413e-03 -5.512582e-05 9.971869e-01 -1.663534e-02 9.971956e-01 -1.664351e-02 2.724589e-03 -5.290586e-05
4.100000e+09 2.721889e-03 -5.708696e-05 9.971754e-01 -1.705036e-02 9.971839e-01 -1.705871e-02 2.727966e-03 -5.478926e-05
4.200000e+09 2.725444e-03 -5.909038e-05 9.971635e-01 -1.746532e-02 9.971719e-01 -1.747383e-02 2.731418e-03 -5.671334e-05
4.300000e+09 2.729077e-03 -6.113700e-05 9.971514e-01 -1.788022e-02 9.971597e-01 -1.788889e-02 2.734947e-03 -5.867900e-05
4.400000e+09 2.732787e-03 -6.322773e-05 9.971391e-01 -1.829506e-02 9.971472e-01 -1.830389e-02 2.738551e-03 -6.068711e-05
4.500000e+09 2.736573e-03 -6.536348e-05 9.971264e-01 -1.870982e-02 9.971344e-01 -1.871881e-02 2.742229e-03 -6.273856e-05
4.600000e+09 2.740435e-03 -6.754514e-05 9.971135e-01 -1.912452e-02 9.971213e-01 -1.913367e-02 2.745982e-03 -6.483421e-05
4.700000e+09 2.744373e-03 -6.977361e-05 9.971003e-01 -1.953916e-02 9.971080e-01 -1.954845e-02 2.749808e-03 -6.697491e-05
4.800000e+09 2.748386e-03 -7.204976e-05 9.970869e-01 -1.995372e-02 9.970943e-01 -1.996316e-02 2.753707e-03 -6.916152e-05
4.900000e+09 2.752474e-03 -7.437448e-05 9.970732e-01 -2.036821e-02 9.970805e-01 -2.037779e-02 2.757678e-03 -7.139490e-05
5.000000e+09 2.756634e-03 -7.674862e-05 9.970592e-01 -2.078262e-02 9.970663e-01 -2.079235e-02 2.761721e-03 -7.367586e-05
5.100000e+09 2.760868e-03 -7.917304e-05 9.970449e-01 -2.119697e-02 9.970519e-01 -2.120683e-02 2.765836e-03 -7.600524e-05
5.200000e+09 2.765175e-03 -8.164860e-05 9.970304e-01 -2.161124e-02 9.970372e-01 -2.162124e-02 2.770021e-03 -7.838387e-05
5.300000e+09 2.769553e-03 -8.417612e-05 9.970156e-01 -2.202543e-02 9.970222e-01 -2.203556e-02 2.774276e-03 -8.081255e-05
5.400000e+09 2.774002e-03 -8.675645e-05 9.970006e-01 -2.243954e-02 9.970070e-01 -2.244981e-02 2.778601e-03 -8.329208e-05
5.500000e+09 2.778522e-03 -8.939039e-05 9.969853e-01 -2.285358e-02 9.969915e-01 -2.286397e-02 2.782995e-03 -8.582326e-05
5.600000e+09 2.783111e-03 -9.207876e-05 9.969697e-01 -2.326754e-02 9.969758e-01 -2.327805e-02 2.787456e-03 -8.840688e-05
5.700000e+09 2.787770e-03 -9.482236e-05 9.969539e-01 -2.368141e-02 9.969597e-01 -2.369205e-02 2.791985e-03 -9.104371e-05
5.800000e+09 2.792497e-03 -9.762199e-05 9.969378e-01 -2.409520e-02 9.969435e-01 -2.410596e-02 2.796581e-03 -9.373453e-05
5.900000e+09 2.797292e-03 -1.004784e-04 9.969215e-01 -2.450892e-02 9.969269e-01 -2.451978e-02 2.801243e-03 -9.648008e-05
6.000000e+09 2.802154e-03 -1.033924e-04 9.969049e-01 -2.492254e-02 9.969101e-01 -2.493352e-02 2.805971e-03 -9.928112e-05
6.100000e+09 2.807082e-03 -1.063648e-04 9.968880e-01 -2.533608e-02 9.968931e-01 -2.534717e-02 2.810763e-03 -1.021384e-04
6.200000e+09 2.812075e-03 -1.093962e-04 9.968709e-01 -2.574954e-02 9.968758e-01 -2.576072e-02 2.815619e-03 -1.050526e-04
6.300000e+09 2.817134e-03 -1.124875e-04 9.968535e-01 -2.616290e-02 9.968582e-01 -2.617419e-02 2.820539e-03 -1.080245e-04
6.400000e+09 2.822256e-03 -1.156394e-04 9.968359e-01 -2.657618e-02 9.968404e-01 -2.658757e-02 2.825522e-03 -1.110548e-04
6.500000e+09 2.827442e-03 -1.188525e-04 9.968181e-01 -2.698937e-02 9.968223e-01 -2.700085e-02 2.830566e-03 -1.141442e-04
6.600000e+09 2.832690e-03 -1.221277e-04 9.967999e-01 -2.740247e-02 9.968040e-01 -2.741403e-02 2.835672e-03 -1.172934e-04
6.700000e+09 2.838000e-03 -1.254655e-04 9.967816e-01 -2.781548e-02 9.967854e-01 -2.782713e-02 2.840839e-03 -1.205031e-04
6.800000e+09 2.843372e-03 -1.288668e-04 9.967629e-01 -2.822839e-02 9.967666e-01 -2.824012e-02 2.846065e-03 -1.237739e-04
6.900000e+09 2.848803e-03 -1.323321e-04 9.967441e-01 -2.864121e-02 9.967475e-01 -2.865302e-02 2.851350e-03 -1.271065e-04
7.000000e+09 2.854294e-03 -1.358621e-04 9.967250e-01 -2.905394e-02 9.967282e-01 -2.906582e-02 2.856693e-03 -1.305015e-04
7.100000e+09 2.859843e-03 -1.394576e-04 9.967056e-01 -2.946657e-02 9.967086e-01 -2.947853e-02 2.862094e-03 -1.339597e-04
7.200000e+09 2.865450e-03 -1.431191e-04 9.966860e-01 -2.987910e-02 9.966888e-01 -2.989113e-02 2.867552e-03 -1.374815e-04
7.300000e+09 2.871115e-03 -1.468473e-04 9.966662e-01 -3.029154e-02 9.966688e-01 -3.030363e-02 2.873066e-03 -1.410678e-04
7.400000e+09 2.876835e-03 -1.506428e-04 9.966461e-01 -3.070388e-02 9.966485e-01 -3.071603e-02 2.878635e-03 -1.447189e-04
7.500000e+09 2.882611e-03 -1.545062e-04 9.966258e-01 -3.111612e-02 9.966279e-01 -3.112833e-02 2.884258e-03 -1.484357e-04
7.600000e+09 2.888441e-03 -1.584381e-04 9.966052e-01 -3.152827e-02 9.966071e-01 -3.154052e-02 2.889935e-03 -1.522186e-04
7.700000e+09 2.894325e-03 -1.624391e-04 9.965844e-01 -3.194031e-02 9.965861e-01 -3.195261e-02 2.895665e-03 -1.560682e-04
7.800000e+09 2.900262e-03 -1.665098e-04 9.965634e-01 -3.235225e-02 9.965649e-01 -3.236460e-02 2.901447e-03 -1.599851e-04
7.900000e+09 2.906251e-03 -1.706508e-04 9.965421e-01 -3.276408e-02 9.965434e-01 -3.277647e-02 2.907280e-03 -1.639698e-04
8.000000e+09 2.912291e-03 -1.748626e-04 9.965206e-01 -3.317582e-02 9.965217e-01 -3.318825e-02 2.913163e-03 -1.680229e-04
8.100000e+09 2.918381e-03 -1.791458e-04 9.964989e-01 -3.358745e-02 9.964997e-01 -3.359991e-02 2.919096e-03 -1.721450e-04
8.200000e+09 2.924521e-03 -1.835008e-04 9.964769e-01 -3.399898e-02 9.964775e-01 -3.401147e-02 2.925078e-03 -1.763365e-04
8.300000e+09 2.930709e-03 -1.879283e-04 9.964547e-01 -3.441040e-02 9.964551e-01 -3.442292e-02 2.931108e-03 -1.805980e-04
8.400000e+09 2.936945e-03 -1.924286e-04 9.964323e-01 -3.482172e-02 9.964324e-01 -3.483425e-02 2.937184e-03 -1.849299e-04
8.500000e+09 2.943227e-03 -1.970024e-04 9.964096e-01 -3.523293e-02 9.964096e-01 -3.524548e-02 2.943307e-03 -1.893328e-04
8.600000e+09 2.949556e-03 -2.016501e-04 9.963867e-01 -3.564403e-02 9.963865e-01 -3.565660e-02 2.949475e-03 -1.938071e-04
8.700000e+09 2.955929e-03 -2.063722e-04 9.963636e-01 -3.605503e-02 9.963631e-01 -3.606761e-02 2.955688e-03 -1.983533e-04
8.800000e+09 2.962347e-03 -2.111691e-04 9.963403e-01 -3.646591e-02 9.963396e-01 -3.647850e-02 2.961944e-03 -2.029719e-04
8.900000e+09 2.968807e-03 -2.160412e-04 9.963167e-01 -3.687669e-02 9.963158e-01 -3.688928e-02 2.968244e-03 -2.076633e-04
9.000000e+09 2.975310e-03 -2.209891e-04 9.962930e-01 -3.728736e-02 9.962918e-01 -3.729995e-02 2.974585e-03 -2.124279e-04
9.100000e+09 2.981854e-03 -2.260132e-04 9.962690e-01 -3.769792e-02 9.962676e-01 -3.771051e-02 2.980967e-03 -2.172661e-04
9.200000e+09 2.988439e-03 -2.311138e-04 9.962448e-01 -3.810837e-02 9.962432e-01 -3.812095e-02 2.987389e-03 -2.221785e-04
9.300000e+09 2.995063e-03 -2.362913e-04 9.962203e-01 -3.851871e-02 9.962185e-01 -3.853127e-02 2.993851e-03 -2.271652e-04
9.400000e+09 3.001726e-03 -2.415462e-04 9.961957e-01 -3.892894e-02 9.961937e-01 -3.894148e-02 3.000351e-03 -2.322269e-04
9.500000e+09 3.008426e-03 -2.468788e-04 9.961708e-01 -3.933905e-02 9.961686e-01 -3.935158e-02 3.006889e-03 -2.373637e-04
9.600000e+09 3.015164e-03 -2.522895e-04 9.961458e-01 -3.974905e-02 9.961433e-01 -3.976155e-02 3.013463e-03 -2.425761e-04
9.700000e+09 3.021937e-03 -2.577787e-04 9.961205e-01 -4.015894e-02 9.961178e-01 -4.017142e-02 3.020073e-03 -2.478645e-04
9.800000e+09 3.028744e-03 -2.633466e-04 9.960950e-01 -4.056872e-02 9.960921e-01 -4.058116e-02 3.026718e-03 -2.532292e-04
9.900000e+09 3.035586e-03 -2.689936e-04 9.960693e-01 -4.097838e-02 9.960662e-01 -4.099079e-02 3.033397e-03 -2.586704e-04
1.000000e+10 3.042461e-03 -2.747200e-04 9.960434e-01 -4.138793e-02 9.960400e-01 -4.140030e-02 3.040109e-03 -2.641886e-04
1.010000e+10 3.049368e-03 -2.805262e-04 9.960173e-01 -4.179736e-02 9.960137e-01 -4.180969e-02 3.046853e-03 -2.697840e-04
1.020000e+10 3.056306e-03 -2.864123e-04 9.959910e-01 -4.220668e-02 9.959872e-01 -4.221896e-02 3.053628e-03 -2.754570e-04
1.030000e+10 3.063274e-03 -2.923787e-04 9.959644e-01 -4.261589e-02 9.959604e-01 -4.262812e-02 3.060434e-03 -2.812077e-04
1.040000e+10 3.070271e-03 -2.984257e-04 9.959377e-01 -4.302498e-02 9.959335e-01 -4.303715e-02 3.067269e-03 -2.870366e-04
1.050000e+10 3.077297e-03 -3.045535e-04 9.959108e-01 -4.343395e-02 9.959063e-01 -4.344607e-02 3.074133e-03 -2.929437e-04
1.060000e+10 3.084350e-03 -3.107623e-04 9.958837e-01 -4.384281e-02 9.958790e-01 -4.385486e-02 3.081024e-03 -2.989295e-04
1.070000e+10 3.091430e-03 -3.170524e-04 9.958563e-01 -4.425155e-02 9.958515e-01 -4.426354e-02 3.087943e-03 -3.049940e-04
1.080000e+10 3.098534e-03 -3.234240e-04 9.958288e-01 -4.466017e-02 9.958237e-01 -4.467210e-02 3.094887e-03 -3.111376e-04
1.090000e+10 3.105664e-03 -3.298773e-04 9.958011e-01 -4.506868e-02 9.957958e-01 -4.508053e-02 3.101856e-03 -3.173605e-04
1.100000e+10 3.112816e-03 -3.364124e-04 9.957732e-01 -4.547707e-02 9.957677e-01 -4.548885e-02 3.108849e-03 -3.236628e-04
1.110000e+10 3.119992e-03 -3.430296e-04 9.957451e-01 -4.588535e-02 9.957394e-01 -4.589704e-02 3.115865e-03 -3.300447e-04
1.120000e+10 3.127189e-03 -3.497290e-04 9.957168e-01 -4.629351e-02 9.957109e-01 -4.630512e-02 3.122903e-03 -3.365065e-04
1.130000e+10 3.134407e-03 -3.565108e-04 9.956883e-01 -4.670155e-02 9.956822e-01 -4.671307e-02 3.129962e-03 -3.430482e-04
1.140000e+10 3.141644e-03 -3.633752e-04 9.956596e-01 -4.710947e-02 9.956533e-01 -4.712090e-02 3.137042e-03 -3.496701e-04
1.150000e+10 3.148900e-03 -3.703221e-04 9.956308e-01 -4.751727e-02 9.956243e-01 -4.752862e-02 3.144142e-03 -3.563723e-04
1.160000e+10 3.156174e-03 -3.773519e-04 9.956017e-01 -4.792496e-02 9.955950e-01 -4.793621e-02 3.151260e-03 -3.631548e-04
1.170000e+10 3.163465e-03 -3.844645e-04 9.955725e-01 -4.833253e-02 9.955656e-01 -4.834368e-02 3.158395e-03 -3.700179e-04
1.180000e+10 3.170772e-03 -3.916601e-04 9.955431e-01 -4.873998e-02 9.955360e-01 -4.875103e-02 3.165547e-03 -3.769617e-04
1.190000e+10 3.178094e-03 -3.989387e-04 9.955135e-01 -4.914732e-02 9.955062e-01 -4.915826e-02 3.172715e-03 -3.839861e-04
1.200000e+10 3.185429e-03 -4.063005e-04 9.954837e-01 -4.955453e-02 9.954762e-01 -4.956536e-02 3.179898e-03 -3.910914e-04
1.210000e+10 3.192778e-03 -4.137454e-04 9.954537e-01 -4.996163e-02 9.954461e-01 -4.997235e-02 3.187095e-03 -3.982776e-04
1.220000e+10 3.200139e-03 -4.212736e-04 9.954236e-01 -5.036861e-02 9.954157e-01 -5.037922e-02 3.194305e-03 -4.055448e-04
1.230000e+10 3.207511e-03 -4.288850e-04 9.953933e-01 -5.077548e-02 9.953852e-01 -5.078596e-02 3.201527e-03 -4.128929e-04
1.240000e+10 3.214894e-03 -4.365797e-04 9.953628e-01 -5.118222e-02 9.953546e-01 -5.119258e-02 3.208760e-03 -4.203221e-04
1.250000e+10 3.222285e-03 -4.443577e-04 9.953321e-01 -5.158885e-02 9.953237e-01 -5.159909e-02 3.216004e-03 -4.278323e-04
1.260000e+10 3.229685e-03 -4.522189e-04 9.953013e-01 -5.199536e-02 9.952927e-01 -5.200547e-02 3.223257e-03 -4.354237e-04
1.270000e+10 3.237093e-03 -4.601635e-04 9.952703e-01 -5.240176e-02 9.952615e-01 -5.241173e-02 3.230518e-03 -4.430961e-04
1.280000e+10 3.244507e-03 -4.681913e-04 9.952391e-01 -5.280803e-02 9.952302e-01 -5.281788e-02 3.237788e-03 -4.508497e-04
1.290000e+10 3.251926e-03 -4.763023e-04 9.952078e-01 -5.321419e-02 9.951986e-01 -5.322390e-02 3.245064e-03 -4.586843e-04
1.300000e+10 3.259350e-03 -4.844965e-04 9.951763e-01 -5.362024e-02 9.951670e-01 -5.362980e-02 3.252345e-03 -4.665999e-04
1.310000e+10 3.266778e-03 -4.927738e-04 9.951446e-01 -5.402616e-02 9.951351e-01 -5.403559e-02 3.259632e-03 -4.745966e-04
1.320000e+10 3.274209e-03 -5.011341e-04 9.951127e-01 -5.443197e-02 9.951031e-01 -5.444125e-02 3.266923e-03 -4.826742e-04
1.330000e+10 3.281641e-03 -5.095774e-04 9.950807e-01 -5.483766e-02 9.950709e-01 -5.484680e-02 3.274217e-03 -4.908328e-04
1.340000e+10 3.289074e-03 -5.181036e-04 9.950485e-01 -5.524324e-02 9.950386e-01 -5.525222e-02 3.281513e-03 -4.990721e-04
1.350000e+10 3.296508e-03 -5.267125e-04 9.950162e-01 -5.564870e-02 9.950061e-01 -5.565753e-02 3.288811e-03 -5.073922e-04
1.360000e+10 3.303940e-03 -5.354041e-04 9.949837e-01 -5.605405e-02 9.949734e-01 -5.606272e-02 3.296109e-03 -5.157930e-04
1.370000e+10 3.311371e-03 -5.441782e-04 9.949510e-01 -5.645928e-02 9.949406e-01 -5.646780e-02 3.303407e-03 -5.242743e-04
1.380000e+10 3.318799e-03 -5.530347e-04 9.949182e-01 -5.686440e-02 9.949077e-01 -5.687275e-02 3.310704e-03 -5.328361e-04
1.390000e+10 3.326223e-03 -5.619734e-04 9.948853e-01 -5.726940e-02 9.948746e-01 -5.727759e-02 3.317999e-03 -5.414782e-04
1.400000e+10 3.333643e-03 -5.709942e-04 9.948521e-01 -5.767428e-02 9.948413e-01 -5.768231e-02 3.325290e-03 -5.502005e-04
1.410000e+10 3.341058e-03 -5.800970e-04 9.948189e-01 -5.807906e-02 9.948079e-01 -5.808692e-02 3.332578e-03 -5.590029e-04
1.420000e+10 3.348466e-03 -5.892814e-04 9.947854e-01 -5.848372e-02 9.947743e-01 -5.849141e-02 3.339861e-03 -5.678851e-04
1.430000e+10 3.355867e-03 -5.985474e-04 9.947518e-01 -5.888826e-02 9.947406e-01 -5.889578e-02 3.347139e-03 -5.768471e-04
1.440000e+10 3.363260e-03 -6.078947e-04 9.947181e-01 -5.929269e-02 9.947067e-01 -5.930004e-02 3.354410e-03 -5.858887e-04
1.450000e+10 3.370644e-03 -6.173232e-04 9.946842e-01 -5.969702e-02 9.946727e-01 -5.970418e-02 3.361674e-03 -5.950096e-04
1.460000e+10 3.378018e-03 -6.268326e-04 9.946502e-01 -6.010122e-02 9.946385e-01 -6.010821e-02 3.368930e-03 -6.042097e-04
1.470000e+10 3.385382e-03 -6.364227e-04 9.946160e-01 -6.050532e-02 9.946042e-01 -6.051213e-02 3.376177e-03 -6.134887e-04
1.480000e+10 3.392734e-03 -6.460932e-04 9.945817e-01 -6.090931e-02 9.945698e-01 -6.091594e-02 3.383415e-03 -6.228466e-04
1.490000e+10 3.400074e-03 -6.558439e-04 9.945472e-01 -6.131318e-02 9.945352e-01 -6.131963e-02 3.390641e-03 -6.322830e-04
1.500000e+10 3.407401e-03 -6.656745e-04 9.945126e-01 -6.171695e-02 9.945004e-01 -6.172321e-02 3.397857e-03 -6.417977e-04
1.510000e+10 3.414714e-03 -6.755848e-04 9.944778e-01 -6.212060e-02 9.944656e-01 -6.212667e-02 3.405060e-03 -6.513905e-04
1.520000e+10 3.422011e-03 -6.855745e-04 9.944429e-01 -6.252415e-02 9.944306e-01 -6.253003e-02 3.412250e-03 -6.610611e-04
1.530000e+10 3.429293e-03 -6.956433e-04 9.944078e-01 -6.292758e-02 9.943954e-01 -6.293328e-02 3.419427e-03 -6.708093e-04
1.540000e+10 3.436559e-03 -7.057909e-04 9.943726e-01 -6.333091e-02 9.943601e-01 -6.333641e-02 3.426589e-03 -6.806347e-04
1.550000e+10 3.443807e-03 -7.160169e-04 9.943373e-01 -6.373413e-02 9.943247e-01 -6.373944e-02 3.433735e-03 -6.905372e-04
1.560000e+10 3.451037e-03 -7.263212e-04 9.943019e-01 -6.413725e-02 9.942891e-01 -6.414236e-02 3.440865e-03 -7.005165e-04
1.570000e+10 3.458248e-03 -7.367032e-04 9.942663e-01 -6.454025e-02 9.942535e-01 -6.454517e-02 3.447979e-03 -7.105721e-04
1.580000e+10 3.465440e-03 -7.471628e-04 9.942305e-01 -6.494316e-02 9.942176e-01 -6.494787e-02 3.455074e-03 -7.207040e-04
1.590000e+10 3.472611e-03 -7.576996e-04 9.941947e-01 -6.534595e-02 9.941817e-01 -6.535047e-02 3.462151e-03 -7.309116e-04
1.600000e+10 3.479760e-03 -7.683131e-04 9.941586e-01 -6.574864e-02 9.941456e-01 -6.575296e-02 3.469209e-03 -7.411947e-04
1.610000e+10 3.486887e-03 -7.790032e-04 9.941225e-01 -6.615123e-02 9.941094e-01 -6.615535e-02 3.476246e-03 -7.515530e-04
1.620000e+10 3.493992e-03 -7.897692e-04 9.940862e-01 -6.655371e-02 9.940730e-01 -6.655763e-02 3.483263e-03 -7.619862e-04
1.630000e+10 3.501072e-03 -8.006110e-04 9.940498e-01 -6.695609e-02 9.940366e-01 -6.695981e-02 3.490258e-03 -7.724938e-04
1.640000e+10 3.508129e-03 -8.115282e-04 9.940133e-01 -6.735837e-02 9.940000e-01 -6.736188e-02 3.497231e-03 -7.830756e-04
