#   Hz   S  RI   R   50
!
0.000000e+00 2.920325e-03 0.000000e+00 9.971443e-01 0.000000e+00 9.971423e-01 0.000000e+00 2.925105e-03 0.000000e+00
1.000000e+08 2.920378e-03 -7.420057e-07 9.971441e-01 -4.696545e-04 9.971422e-01 -4.696748e-04 2.925158e-03 -4.858045e-07
2.000000e+08 2.920537e-03 -1.485309e-06 9.971436e-01 -9.393070e-04 9.971416e-01 -9.393475e-04 2.925317e-03 -9.729118e-07
3.000000e+08 2.920803e-03 -2.231209e-06 9.971427e-01 -1.408955e-03 9.971407e-01 -1.409016e-03 2.925582e-03 -1.462624e-06
4.000000e+08 2.921174e-03 -2.981001e-06 9.971414e-01 -1.878598e-03 9.971394e-01 -1.878679e-03 2.925953e-03 -1.956244e-06
5.000000e+08 2.921651e-03 -3.735983e-06 9.971398e-01 -2.348232e-03 9.971378e-01 -2.348333e-03 2.926430e-03 -2.455073e-06
6.000000e+08 2.922235e-03 -4.497450e-06 9.971378e-01 -2.817856e-03 9.971358e-01 -2.817978e-03 2.927013e-03 -2.960410e-06
7.000000e+08 2.922924e-03 -5.266697e-06 9.971354e-01 -3.287468e-03 9.971334e-01 -3.287610e-03 2.927702e-03 -3.473556e-06
8.000000e+08 2.923719e-03 -6.045016e-06 9.971327e-01 -3.757066e-03 9.971307e-01 -3.757228e-03 2.928496e-03 -3.995807e-06
9.000000e+08 2.924619e-03 -6.833699e-06 9.971296e-01 -4.226647e-03 9.971276e-01 -4.226830e-03 2.929396e-03 -4.528460e-06
1.000000e+09 2.925625e-03 -7.634034e-06 9.971262e-01 -4.696210e-03 9.971242e-01 -4.696413e-03 2.930401e-03 -5.072809e-06
1.100000e+09 2.926736e-03 -8.447309e-06 9.971224e-01 -5.165754e-03 9.971204e-01 -5.165976e-03 2.931512e-03 -5.630145e-06
1.200000e+09 2.927953e-03 -9.274809e-06 9.971182e-01 -5.635274e-03 9.971162e-01 -5.635517e-03 2.932727e-03 -6.201758e-06
1.300000e+09 2.929274e-03 -1.011782e-05 9.971136e-01 -6.104771e-03 9.971117e-01 -6.105034e-03 2.934048e-03 -6.788935e-06
1.400000e+09 2.930700e-03 -1.097761e-05 9.971088e-01 -6.574241e-03 9.971068e-01 -6.574525e-03 2.935473e-03 -7.392959e-06
1.500000e+09 2.932230e-03 -1.185546e-05 9.971035e-01 -7.043684e-03 9.971015e-01 -7.043987e-03 2.937002e-03 -8.015112e-06
1.600000e+09 2.933865e-03 -1.275265e-05 9.970979e-01 -7.513096e-03 9.970959e-01 -7.513419e-03 2.938636e-03 -8.656671e-06
1.700000e+09 2.935604e-03 -1.367044e-05 9.970919e-01 -7.982475e-03 9.970899e-01 -7.982819e-03 2.940373e-03 -9.318908e-06
1.800000e+09 2.937446e-03 -1.461010e-05 9.970856e-01 -8.451821e-03 9.970836e-01 -8.452185e-03 2.942215e-03 -1.000310e-05
1.900000e+09 2.939392e-03 -1.557289e-05 9.970789e-01 -8.921130e-03 9.970769e-01 -8.921514e-03 2.944159e-03 -1.071050e-05
2.000000e+09 2.941441e-03 -1.656007e-05 9.970718e-01 -9.390402e-03 9.970698e-01 -9.390806e-03 2.946207e-03 -1.144238e-05
2.100000e+09 2.943593e-03 -1.757289e-05 9.970644e-01 -9.859633e-03 9.970624e-01 -9.860057e-03 2.948357e-03 -1.219999e-05
2.200000e+09 2.945847e-03 -1.861259e-05 9.970567e-01 -1.032882e-02 9.970547e-01 -1.032927e-02 2.950610e-03 -1.298459e-05
2.300000e+09 2.948204e-03 -1.968042e-05 9.970485e-01 -1.079797e-02 9.970465e-01 -1.079843e-02 2.952965e-03 -1.379742e-05
2.400000e+09 2.950662e-03 -2.077762e-05 9.970401e-01 -1.126707e-02 9.970381e-01 -1.126755e-02 2.955421e-03 -1.463972e-05
2.500000e+09 2.953221e-03 -2.190541e-05 9.970312e-01 -1.173612e-02 9.970292e-01 -1.173662e-02 2.957979e-03 -1.551274e-05
2.600000e+09 2.955881e-03 -2.306503e-05 9.970220e-01 -1.220512e-02 9.970200e-01 -1.220565e-02 2.960637e-03 -1.641770e-05
2.700000e+09 2.958642e-03 -2.425770e-05 9.970125e-01 -1.267407e-02 9.970105e-01 -1.267462e-02 2.963396e-03 -1.735582e-05
2.800000e+09 2.961503e-03 -2.548462e-05 9.970026e-01 -1.314297e-02 9.970006e-01 -1.314353e-02 2.966255e-03 -1.832833e-05
2.900000e+09 2.964464e-03 -2.674701e-05 9.969923e-01 -1.361181e-02 9.969903e-01 -1.361239e-02 2.969214e-03 -1.933644e-05
3.000000e+09 2.967524e-03 -2.804607e-05 9.969817e-01 -1.408060e-02 9.969797e-01 -1.408120e-02 2.972271e-03 -2.038135e-05
3.100000e+09 2.970682e-03 -2.938299e-05 9.969708e-01 -1.454932e-02 9.969688e-01 -1.454995e-02 2.975428e-03 -2.146427e-05
3.200000e+09 2.973939e-03 -3.075896e-05 9.969595e-01 -1.501799e-02 9.969575e-01 -1.501863e-02 2.978682e-03 -2.258638e-05
3.300000e+09 2.977293e-03 -3.217516e-05 9.969478e-01 -1.548659e-02 9.969458e-01 -1.548725e-02 2.982034e-03 -2.374887e-05
3.400000e+09 2.980744e-03 -3.363276e-05 9.969358e-01 -1.595513e-02 9.969338e-01 -1.595581e-02 2.985483e-03 -2.495291e-05
3.500000e+09 2.984293e-03 -3.513293e-05 9.969235e-01 -1.642360e-02 9.969215e-01 -1.642430e-02 2.989029e-03 -2.619969e-05
3.600000e+09 2.987937e-03 -3.667683e-05 9.969108e-01 -1.689200e-02 9.969088e-01 -1.689272e-02 2.992670e-03 -2.749035e-05
3.700000e+09 2.991676e-03 -3.826561e-05 9.968977e-01 -1.736034e-02 9.968957e-01 -1.736108e-02 2.996407e-03 -2.882606e-05
3.800000e+09 2.995511e-03 -3.990040e-05 9.968843e-01 -1.782860e-02 9.968823e-01 -1.782936e-02 3.000239e-03 -3.020795e-05
3.900000e+09 2.999440e-03 -4.158234e-05 9.968706e-01 -1.829679e-02 9.968686e-01 -1.829757e-02 3.004165e-03 -3.163717e-05
4.000000e+09 3.003462e-03 -4.331255e-05 9.968565e-01 -1.876490e-02 9.968545e-01 -1.876570e-02 3.008185e-03 -3.311484e-05
4.100000e+09 3.007578e-03 -4.509216e-05 9.968421e-01 -1.923294e-02 9.968401e-01 -1.923375e-02 3.012298e-03 -3.464209e-05
4.200000e+09 3.011786e-03 -4.692226e-05 9.968273e-01 -1.970090e-02 9.968253e-01 -1.970173e-02 3.016503e-03 -3.622002e-05
4.300000e+09 3.016086e-03 -4.880395e-05 9.968122e-01 -2.016878e-02 9.968102e-01 -2.016963e-02 3.020799e-03 -3.784974e-05
4.400000e+09 3.020477e-03 -5.073832e-05 9.967968e-01 -2.063657e-02 9.967948e-01 -2.063745e-02 3.025187e-03 -3.953233e-05
4.500000e+09 3.024958e-03 -5.272646e-05 9.967810e-01 -2.110428e-02 9.967790e-01 -2.110518e-02 3.029665e-03 -4.126889e-05
4.600000e+09 3.029529e-03 -5.476942e-05 9.967649e-01 -2.157191e-02 9.967629e-01 -2.157282e-02 3.034233e-03 -4.306048e-05
4.700000e+09 3.034189e-03 -5.686827e-05 9.967485e-01 -2.203945e-02 9.967464e-01 -2.204038e-02 3.038890e-03 -4.490816e-05
4.800000e+09 3.038938e-03 -5.902405e-05 9.967317e-01 -2.250691e-02 9.967296e-01 -2.250786e-02 3.043635e-03 -4.681299e-05
4.900000e+09 3.043774e-03 -6.123780e-05 9.967145e-01 -2.297427e-02 9.967125e-01 -2.297524e-02 3.048467e-03 -4.877602e-05
5.000000e+09 3.048697e-03 -6.351056e-05 9.966971e-01 -2.344154e-02 9.966950e-01 -2.344253e-02 3.053386e-03 -5.079827e-05
5.100000e+09 3.053705e-03 -6.584333e-05 9.966793e-01 -2.390872e-02 9.966773e-01 -2.390972e-02 3.058392e-03 -5.288076e-05
5.200000e+09 3.058800e-03 -6.823713e-05 9.966612e-01 -2.437580e-02 9.966591e-01 -2.437683e-02 3.063482e-03 -5.502450e-05
5.300000e+09 3.063978e-03 -7.069295e-05 9.966427e-01 -2.484279e-02 9.966407e-01 -2.484383e-02 3.068657e-03 -5.723050e-05
5.400000e+09 3.069241e-03 -7.321177e-05 9.966240e-01 -2.530968e-02 9.966219e-01 -2.531074e-02 3.073915e-03 -5.949974e-05
5.500000e+09 3.074586e-03 -7.579457e-05 9.966049e-01 -2.577647e-02 9.966028e-01 -2.577755e-02 3.079257e-03 -6.183320e-05
5.600000e+09 3.080013e-03 -7.844231e-05 9.965854e-01 -2.624317e-02 9.965834e-01 -2.624426e-02 3.084680e-03 -6.423184e-05
5.700000e+09 3.085522e-03 -8.115593e-05 9.965657e-01 -2.670975e-02 9.965636e-01 -2.671087e-02 3.090184e-03 -6.669663e-05
5.800000e+09 3.091111e-03 -8.393638e-05 9.965456e-01 -2.717624e-02 9.965436e-01 -2.717737e-02 3.095769e-03 -6.922849e-05
5.900000e+09 3.096779e-03 -8.678459e-05 9.965252e-01 -2.764262e-02 9.965232e-01 -2.764377e-02 3.101434e-03 -7.182836e-05
6.000000e+09 3.102527e-03 -8.970146e-05 9.965045e-01 -2.810890e-02 9.965025e-01 -2.811007e-02 3.107177e-03 -7.449716e-05
6.100000e+09 3.108352e-03 -9.268790e-05 9.964835e-01 -2.857507e-02 9.964814e-01 -2.857625e-02 3.112997e-03 -7.723579e-05
6.200000e+09 3.114254e-03 -9.574480e-05 9.964621e-01 -2.904113e-02 9.964601e-01 -2.904233e-02 3.118895e-03 -8.004515e-05
6.300000e+09 3.120232e-03 -9.887304e-05 9.964405e-01 -2.950708e-02 9.964384e-01 -2.950830e-02 3.124868e-03 -8.292613e-05
6.400000e+09 3.126285e-03 -1.020735e-04 9.964185e-01 -2.997291e-02 9.964164e-01 -2.997415e-02 3.130917e-03 -8.587958e-05
6.500000e+09 3.132413e-03 -1.053470e-04 9.963962e-01 -3.043864e-02 9.963941e-01 -3.043990e-02 3.137040e-03 -8.890636e-05
6.600000e+09 3.138613e-03 -1.086944e-04 9.963736e-01 -3.090425e-02 9.963715e-01 -3.090553e-02 3.143236e-03 -9.200732e-05
6.700000e+09 3.144887e-03 -1.121165e-04 9.963507e-01 -3.136975e-02 9.963486e-01 -3.137104e-02 3.149504e-03 -9.518328e-05
6.800000e+09 3.151231e-03 -1.156141e-04 9.963275e-01 -3.183513e-02 9.963254e-01 -3.183644e-02 3.155843e-03 -9.843507e-05
6.900000e+09 3.157646e-03 -1.191881e-04 9.963040e-01 -3.230039e-02 9.963019e-01 -3.230172e-02 3.162253e-03 -1.017635e-04
7.000000e+09 3.164131e-03 -1.228392e-04 9.962801e-01 -3.276554e-02 9.962780e-01 -3.276688e-02 3.168733e-03 -1.051693e-04
7.100000e+09 3.170684e-03 -1.265682e-04 9.962560e-01 -3.323056e-02 9.962539e-01 -3.323193e-02 3.175281e-03 -1.086534e-04
7.200000e+09 3.177304e-03 -1.303758e-04 9.962316e-01 -3.369547e-02 9.962295e-01 -3.369685e-02 3.181896e-03 -1.122164e-04
7.300000e+09 3.183992e-03 -1.342629e-04 9.962068e-01 -3.416025e-02 9.962047e-01 -3.416165e-02 3.188578e-03 -1.158591e-04
7.400000e+09 3.190744e-03 -1.382301e-04 9.961818e-01 -3.462491e-02 9.961797e-01 -3.462632e-02 3.195325e-03 -1.195822e-04
7.500000e+09 3.197562e-03 -1.422781e-04 9.961564e-01 -3.508945e-02 9.961543e-01 -3.509088e-02 3.202137e-03 -1.233865e-04
7.600000e+09 3.204443e-03 -1.464077e-04 9.961308e-01 -3.555386e-02 9.961287e-01 -3.555531e-02 3.209012e-03 -1.272727e-04
7.700000e+09 3.211386e-03 -1.506196e-04 9.961049e-01 -3.601814e-02 9.961028e-01 -3.601961e-02 3.215950e-03 -1.312415e-04
7.800000e+09 3.218391e-03 -1.549143e-04 9.960787e-01 -3.648230e-02 9.960765e-01 -3.648378e-02 3.222949e-03 -1.352935e-04
7.900000e+09 3.225456e-03 -1.592927e-04 9.960522e-01 -3.694633e-02 9.960500e-01 -3.694783e-02 3.230009e-03 -1.394294e-04
8.000000e+09 3.232581e-03 -1.637553e-04 9.960254e-01 -3.741024e-02 9.960232e-01 -3.741175e-02 3.237128e-03 -1.436499e-04
8.100000e+09 3.239764e-03 -1.683028e-04 9.959983e-01 -3.787401e-02 9.959961e-01 -3.787554e-02 3.244305e-03 -1.479556e-04
8.200000e+09 3.247005e-03 -1.729358e-04 9.959709e-01 -3.833765e-02 9.959688e-01 -3.833920e-02 3.251539e-03 -1.523471e-04
8.300000e+09 3.254302e-03 -1.776549e-04 9.959432e-01 -3.880116e-02 9.959411e-01 -3.880272e-02 3.258830e-03 -1.568251e-04
8.400000e+09 3.261654e-03 -1.824607e-04 9.959153e-01 -3.926454e-02 9.959131e-01 -3.926612e-02 3.266176e-03 -1.613901e-04
8.500000e+09 3.269060e-03 -1.873537e-04 9.958871e-01 -3.972779e-02 9.958849e-01 -3.972938e-02 3.273576e-03 -1.660428e-04
8.600000e+09 3.276519e-03 -1.923346e-04 9.958586e-01 -4.019090e-02 9.958564e-01 -4.019251e-02 3.281029e-03 -1.707836e-04
8.700000e+09 3.284031e-03 -1.974039e-04 9.958298e-01 -4.065388e-02 9.958276e-01 -4.065550e-02 3.288533e-03 -1.756131e-04
8.800000e+09 3.291593e-03 -2.025621e-04 9.958007e-01 -4.111672e-02 9.957985e-01 -4.111836e-02 3.296089e-03 -1.805320e-04
8.900000e+09 3.299205e-03 -2.078097e-04 9.957714e-01 -4.157943e-02 9.957692e-01 -4.158108e-02 3.303694e-03 -1.855406e-04
9.000000e+09 3.306865e-03 -2.131473e-04 9.957418e-01 -4.204200e-02 9.957396e-01 -4.204367e-02 3.311348e-03 -1.906395e-04
9.100000e+09 3.314574e-03 -2.185753e-04 9.957119e-01 -4.250443e-02 9.957097e-01 -4.250612e-02 3.319050e-03 -1.958291e-04
9.200000e+09 3.322328e-03 -2.240942e-04 9.956817e-01 -4.296673e-02 9.956796e-01 -4.296843e-02 3.326797e-03 -2.011101e-04
9.300000e+09 3.330128e-03 -2.297044e-04 9.956513e-01 -4.342888e-02 9.956491e-01 -4.343060e-02 3.334590e-03 -2.064828e-04
9.400000e+09 3.337973e-03 -2.354065e-04 9.956206e-01 -4.389090e-02 9.956184e-01 -4.389263e-02 3.342428e-03 -2.119476e-04
9.500000e+09 3.345860e-03 -2.412008e-04 9.955897e-01 -4.435278e-02 9.955875e-01 -4.435453e-02 3.350308e-03 -2.175051e-04
9.600000e+09 3.353790e-03 -2.470877e-04 9.955585e-01 -4.481452e-02 9.955563e-01 -4.481628e-02 3.358230e-03 -2.231556e-04
9.700000e+09 3.361760e-03 -2.530677e-04 9.955270e-01 -4.527612e-02 9.955248e-01 -4.527789e-02 3.366194e-03 -2.288995e-04
9.800000e+09 3.369770e-03 -2.591412e-04 9.954952e-01 -4.573757e-02 9.954930e-01 -4.573937e-02 3.374196e-03 -2.347372e-04
9.900000e+09 3.377819e-03 -2.653084e-04 9.954632e-01 -4.619889e-02 9.954610e-01 -4.620070e-02 3.382238e-03 -2.406691e-04
1.000000e+10 3.385905e-03 -2.715698e-04 9.954310e-01 -4.666006e-02 9.954288e-01 -4.666188e-02 3.390317e-03 -2.466955e-04
1.010000e+10 3.394028e-03 -2.779257e-04 9.953985e-01 -4.712110e-02 9.953963e-01 -4.712293e-02 3.398432e-03 -2.528169e-04
1.020000e+10 3.402186e-03 -2.843764e-04 9.953657e-01 -4.758198e-02 9.953635e-01 -4.758383e-02 3.406582e-03 -2.590334e-04
1.030000e+10 3.410378e-03 -2.909223e-04 9.953327e-01 -4.804273e-02 9.953305e-01 -4.804459e-02 3.414766e-03 -2.653455e-04
1.040000e+10 3.418603e-03 -2.975636e-04 9.952995e-01 -4.850333e-02 9.952972e-01 -4.850521e-02 3.422983e-03 -2.717534e-04
1.050000e+10 3.426860e-03 -3.043006e-04 9.952659e-01 -4.896379e-02 9.952637e-01 -4.896568e-02 3.431232e-03 -2.782573e-04
1.060000e+10 3.435147e-03 -3.111336e-04 9.952322e-01 -4.942411e-02 9.952300e-01 -4.942601e-02 3.439512e-03 -2.848577e-04
1.070000e+10 3.443464e-03 -3.180628e-04 9.951982e-01 -4.988428e-02 9.951960e-01 -4.988620e-02 3.447821e-03 -2.915547e-04
1.080000e+10 3.451810e-03 -3.250884e-04 9.951640e-01 -5.034430e-02 9.951617e-01 -5.034624e-02 3.456158e-03 -2.983485e-04
1.090000e+10 3.460182e-03 -3.322108e-04 9.951295e-01 -5.080419e-02 9.951272e-01 -5.080613e-02 3.464522e-03 -3.052394e-04
1.100000e+10 3.468581e-03 -3.394300e-04 9.950947e-01 -5.126392e-02 9.950925e-01 -5.126588e-02 3.472912e-03 -3.122276e-04
1.110000e+10 3.477004e-03 -3.467463e-04 9.950598e-01 -5.172352e-02 9.950575e-01 -5.172549e-02 3.481328e-03 -3.193133e-04
1.120000e+10 3.485452e-03 -3.541599e-04 9.950246e-01 -5.218296e-02 9.950223e-01 -5.218495e-02 3.489766e-03 -3.264966e-04
1.130000e+10 3.493922e-03 -3.616708e-04 9.949892e-01 -5.264227e-02 9.949869e-01 -5.264427e-02 3.498228e-03 -3.337778e-04
1.140000e+10 3.502413e-03 -3.692794e-04 9.949535e-01 -5.310142e-02 9.949512e-01 -5.310344e-02 3.506711e-03 -3.411569e-04
1.150000e+10 3.510925e-03 -3.769856e-04 9.949176e-01 -5.356044e-02 9.949153e-01 -5.356246e-02 3.515214e-03 -3.486341e-04
1.160000e+10 3.519456e-03 -3.847896e-04 9.948815e-01 -5.401930e-02 9.948792e-01 -5.402134e-02 3.523736e-03 -3.562095e-04
1.170000e+10 3.528005e-03 -3.926915e-04 9.948451e-01 -5.447802e-02 9.948428e-01 -5.448007e-02 3.532276e-03 -3.638833e-04
1.180000e+10 3.536571e-03 -4.006914e-04 9.948085e-01 -5.493660e-02 9.948063e-01 -5.493866e-02 3.540833e-03 -3.716555e-04
1.190000e+10 3.545153e-03 -4.087894e-04 9.947717e-01 -5.539503e-02 9.947694e-01 -5.539711e-02 3.549406e-03 -3.795261e-04
1.200000e+10 3.553749e-03 -4.169856e-04 9.947347e-01 -5.585331e-02 9.947324e-01 -5.585540e-02 3.557993e-03 -3.874953e-04
1.210000e+10 3.562359e-03 -4.252799e-04 9.946974e-01 -5.631145e-02 9.946952e-01 -5.631355e-02 3.566594e-03 -3.955631e-04
1.220000e+10 3.570981e-03 -4.336724e-04 9.946600e-01 -5.676945e-02 9.946577e-01 -5.677156e-02 3.575207e-03 -4.037295e-04
1.230000e+10 3.579615e-03 -4.421631e-04 9.946223e-01 -5.722730e-02 9.946200e-01 -5.722942e-02 3.583831e-03 -4.119945e-04
1.240000e+10 3.588258e-03 -4.507520e-04 9.945844e-01 -5.768500e-02 9.945821e-01 -5.768714e-02 3.592465e-03 -4.203582e-04
1.250000e+10 3.596911e-03 -4.594392e-04 9.945463e-01 -5.814256e-02 9.945440e-01 -5.814471e-02 3.601108e-03 -4.288205e-04
1.260000e+10 3.605571e-03 -4.682245e-04 9.945079e-01 -5.859998e-02 9.945056e-01 -5.860214e-02 3.609758e-03 -4.373814e-04
1.270000e+10 3.614238e-03 -4.771079e-04 9.944694e-01 -5.905725e-02 9.944671e-01 -5.905942e-02 3.618416e-03 -4.460409e-04
1.280000e+10 3.622911e-03 -4.860895e-04 9.944307e-01 -5.951438e-02 9.944283e-01 -5.951656e-02 3.627078e-03 -4.547988e-04
1.290000e+10 3.631588e-03 -4.951690e-04 9.943917e-01 -5.997136e-02 9.943894e-01 -5.997356e-02 3.635745e-03 -4.636552e-04
1.300000e+10 3.640268e-03 -5.043465e-04 9.943525e-01 -6.042820e-02 9.943502e-01 -6.043041e-02 3.644416e-03 -4.726100e-04
1.310000e+10 3.648951e-03 -5.136218e-04 9.943132e-01 -6.088490e-02 9.943108e-01 -6.088712e-02 3.653089e-03 -4.816630e-04
1.320000e+10 3.657634e-03 -5.229948e-04 9.942736e-01 -6.134145e-02 9.942713e-01 -6.134368e-02 3.661762e-03 -4.908142e-04
1.330000e+10 3.666318e-03 -5.324655e-04 9.942338e-01 -6.179787e-02 9.942315e-01 -6.180011e-02 3.670436e-03 -5.000634e-04
1.340000e+10 3.675001e-03 -5.420336e-04 9.941938e-01 -6.225413e-02 9.941915e-01 -6.225639e-02 3.679108e-03 -5.094105e-04
1.350000e+10 3.683681e-03 -5.516990e-04 9.941536e-01 -6.271026e-02 9.941513e-01 -6.271253e-02 3.687778e-03 -5.188554e-04
1.360000e+10 3.692359e-03 -5.614615e-04 9.941133e-01 -6.316625e-02 9.941109e-01 -6.316852e-02 3.696445e-03 -5.283978e-04
1.370000e+10 3.701031e-03 -5.713210e-04 9.940727e-01 -6.362209e-02 9.940704e-01 -6.362438e-02 3.705108e-03 -5.380376e-04
1.380000e+10 3.709699e-03 -5.812774e-04 9.940319e-01 -6.407780e-02 9.940296e-01 -6.408009e-02 3.713765e-03 -5.477746e-04
1.390000e+10 3.718360e-03 -5.913303e-04 9.939910e-01 -6.453336e-02 9.939886e-01 -6.453567e-02 3.722415e-03 -5.576087e-04
1.400000e+10 3.727013e-03 -6.014795e-04 9.939498e-01 -6.498879e-02 9.939475e-01 -6.499111e-02 3.731058e-03 -5.675395e-04
1.410000e+10 3.735658e-03 -6.117249e-04 9.939085e-01 -6.544407e-02 9.939061e-01 -6.544640e-02 3.739692e-03 -5.775670e-04
1.420000e+10 3.744293e-03 -6.220662e-04 9.938669e-01 -6.589922e-02 9.938646e-01 -6.590156e-02 3.748316e-03 -5.876907e-04
1.430000e+10 3.752918e-03 -6.325031e-04 9.938252e-01 -6.635423e-02 9.938229e-01 -6.635658e-02 3.756929e-03 -5.979105e-04
1.440000e+10 3.761530e-03 -6.430354e-04 9.937833e-01 -6.680910e-02 9.937810e-01 -6.681146e-02 3.765531e-03 -6.082262e-04
1.450000e+10 3.770130e-03 -6.536628e-04 9.937412e-01 -6.726384e-02 9.937389e-01 -6.726620e-02 3.774120e-03 -6.186373e-04
1.460000e+10 3.778716e-03 -6.643850e-04 9.936990e-01 -6.771843e-02 9.936966e-01 -6.772081e-02 3.782694e-03 -6.291437e-04
1.470000e+10 3.787287e-03 -6.752017e-04 9.936565e-01 -6.817290e-02 9.936541e-01 -6.817529e-02 3.791254e-03 -6.397451e-04
1.480000e+10 3.795842e-03 -6.861126e-04 9.936139e-01 -6.862722e-02 9.936115e-01 -6.862962e-02 3.799798e-03 -6.504410e-04
1.490000e+10 3.804380e-03 -6.971174e-04 9.935711e-01 -6.908142e-02 9.935687e-01 -6.908382e-02 3.808325e-03 -6.612313e-04
1.500000e+10 3.812900e-03 -7.082157e-04 9.935281e-01 -6.953548e-02 9.935257e-01 -6.953789e-02 3.816834e-03 -6.721155e-04
1.510000e+10 3.821402e-03 -7.194071e-04 9.934849e-01 -6.998940e-02 9.934825e-01 -6.999183e-02 3.825323e-03 -6.830933e-04
1.520000e+10 3.829883e-03 -7.306914e-04 9.934416e-01 -7.044320e-02 9.934392e-01 -7.044563e-02 3.833793e-03 -6.941644e-04
1.530000e+10 3.838344e-03 -7.420681e-04 9.933981e-01 -7.089686e-02 9.933957e-01 -7.089930e-02 3.842242e-03 -7.053284e-04
1.540000e+10 3.846782e-03 -7.535369e-04 9.933544e-01 -7.135039e-02 9.933520e-01 -7.135284e-02 3.850669e-03 -7.165848e-04
1.550000e+10 3.855198e-03 -7.650974e-04 9.933105e-01 -7.180379e-02 9.933081e-01 -7.180625e-02 3.859072e-03 -7.279334e-04
1.560000e+10 3.863589e-03 -7.767491e-04 9.932665e-01 -7.225706e-02 9.932641e-01 -7.225953e-02 3.867452e-03 -7.393736e-04
1.570000e+10 3.871956e-03 -7.884916e-04 9.932223e-01 -7.271020e-02 9.932199e-01 -7.271268e-02 3.875807e-03 -7.509051e-04
1.580000e+10 3.880298e-03 -8.003246e-04 9.931779e-01 -7.316321e-02 9.931755e-01 -7.316570e-02 3.884137e-03 -7.625275e-04
1.590000e+10 3.888612e-03 -8.122475e-04 9.931334e-01 -7.361610e-02 9.931310e-01 -7.361860e-02 3.892439e-03 -7.742403e-04
1.600000e+10 3.896899e-03 -8.242600e-04 9.930887e-01 -7.406886e-02 9.930863e-01 -7.407137e-02 3.900714e-03 -7.860430e-04
1.610000e+10 3.905157e-03 -8.363616e-04 9.930438e-01 -7.452150e-02 9.930414e-01 -7.452401e-02 3.908960e-03 -7.979352e-04
1.620000e+10 3.913386e-03 -8.485517e-04 9.929988e-01 -7.497400e-02 9.929964e-01 -7.497653e-02 3.917176e-03 -8.099165e-04
1.630000e+10 3.921585e-03 -8.608300e-04 9.929536e-01 -7.542639e-02 9.929512e-01 -7.542892e-02 3.925363e-03 -8.219863e-04
1.640000e+10 3.929752e-03 -8.731959e-04 9.929083e-01 -7.587865e-02 9.929059e-01 -7.588119e-02 3.933517e-03 -8.341442e-04
