#   Hz   S  RI   R   50
!
0.000000e+00 3.117140e-03 0.000000e+00 9.970604e-01 0.000000e+00 9.969871e-01 0.000000e+00 3.039888e-03 0.000000e+00
1.000000e+08 3.117191e-03 -1.252179e-06 9.970602e-01 -4.945068e-04 9.969869e-01 -4.931816e-04 3.039948e-03 7.287884e-08
2.000000e+08 3.117344e-03 -2.505583e-06 9.970596e-01 -9.890113e-04 9.969863e-01 -9.863613e-04 3.040128e-03 1.442444e-07
3.000000e+08 3.117600e-03 -3.761433e-06 9.970585e-01 -1.483511e-03 9.969853e-01 -1.479537e-03 3.040428e-03 2.125836e-07
4.000000e+08 3.117957e-03 -5.020953e-06 9.970571e-01 -1.978004e-03 9.969840e-01 -1.972707e-03 3.040847e-03 2.763840e-07
5.000000e+08 3.118417e-03 -6.285365e-06 9.970553e-01 -2.472487e-03 9.969823e-01 -2.465870e-03 3.041387e-03 3.341342e-07
6.000000e+08 3.118978e-03 -7.555891e-06 9.970531e-01 -2.966959e-03 9.969802e-01 -2.959023e-03 3.042046e-03 3.843238e-07
7.000000e+08 3.119642e-03 -8.833751e-06 9.970505e-01 -3.461417e-03 9.969777e-01 -3.452165e-03 3.042825e-03 4.254439e-07
8.000000e+08 3.120407e-03 -1.012016e-05 9.970474e-01 -3.955858e-03 9.969749e-01 -3.945293e-03 3.043723e-03 4.559875e-07
9.000000e+08 3.121274e-03 -1.141635e-05 9.970440e-01 -4.450281e-03 9.969716e-01 -4.438406e-03 3.044741e-03 4.744497e-07
1.000000e+09 3.122242e-03 -1.272352e-05 9.970401e-01 -4.944683e-03 9.969680e-01 -4.931502e-03 3.045877e-03 4.793278e-07
1.100000e+09 3.123312e-03 -1.404289e-05 9.970359e-01 -5.439061e-03 9.969640e-01 -5.424579e-03 3.047133e-03 4.691220e-07
1.200000e+09 3.124483e-03 -1.537568e-05 9.970313e-01 -5.933414e-03 9.969597e-01 -5.917636e-03 3.048507e-03 4.423352e-07
1.300000e+09 3.125755e-03 -1.672309e-05 9.970262e-01 -6.427739e-03 9.969549e-01 -6.410669e-03 3.050000e-03 3.974739e-07
1.400000e+09 3.127128e-03 -1.808632e-05 9.970208e-01 -6.922034e-03 9.969498e-01 -6.903678e-03 3.051611e-03 3.330479e-07
1.500000e+09 3.128602e-03 -1.946660e-05 9.970149e-01 -7.416296e-03 9.969443e-01 -7.396661e-03 3.053341e-03 2.475709e-07
1.600000e+09 3.130176e-03 -2.086510e-05 9.970087e-01 -7.910524e-03 9.969384e-01 -7.889615e-03 3.055188e-03 1.395609e-07
1.700000e+09 3.131850e-03 -2.228304e-05 9.970020e-01 -8.404714e-03 9.969321e-01 -8.382539e-03 3.057152e-03 7.539994e-09
1.800000e+09 3.133624e-03 -2.372161e-05 9.969949e-01 -8.898865e-03 9.969255e-01 -8.875430e-03 3.059233e-03 -1.499647e-07
1.900000e+09 3.135498e-03 -2.518201e-05 9.969875e-01 -9.392975e-03 9.969184e-01 -9.368288e-03 3.061431e-03 -3.344211e-07
2.000000e+09 3.137472e-03 -2.666540e-05 9.969796e-01 -9.887041e-03 9.969110e-01 -9.861111e-03 3.063746e-03 -5.472920e-07
2.100000e+09 3.139545e-03 -2.817299e-05 9.969714e-01 -1.038106e-02 9.969033e-01 -1.035390e-02 3.066176e-03 -7.900345e-07
2.200000e+09 3.141716e-03 -2.970595e-05 9.969627e-01 -1.087503e-02 9.968951e-01 -1.084664e-02 3.068722e-03 -1.064100e-06
2.300000e+09 3.143986e-03 -3.126546e-05 9.969537e-01 -1.136895e-02 9.968866e-01 -1.133934e-02 3.071383e-03 -1.370933e-06
2.400000e+09 3.146354e-03 -3.285268e-05 9.969442e-01 -1.186282e-02 9.968777e-01 -1.183201e-02 3.074159e-03 -1.711973e-06
2.500000e+09 3.148820e-03 -3.446879e-05 9.969344e-01 -1.235663e-02 9.968684e-01 -1.232462e-02 3.077049e-03 -2.088652e-06
2.600000e+09 3.151383e-03 -3.611494e-05 9.969242e-01 -1.285039e-02 9.968588e-01 -1.281719e-02 3.080052e-03 -2.502395e-06
2.700000e+09 3.154044e-03 -3.779229e-05 9.969135e-01 -1.334409e-02 9.968487e-01 -1.330971e-02 3.083169e-03 -2.954619e-06
2.800000e+09 3.156801e-03 -3.950199e-05 9.969025e-01 -1.383772e-02 9.968383e-01 -1.380218e-02 3.086399e-03 -3.446735e-06
2.900000e+09 3.159654e-03 -4.124518e-05 9.968911e-01 -1.433129e-02 9.968276e-01 -1.429460e-02 3.089741e-03 -3.980146e-06
3.000000e+09 3.162604e-03 -4.302300e-05 9.968793e-01 -1.482480e-02 9.968164e-01 -1.478697e-02 3.093194e-03 -4.556246e-06
3.100000e+09 3.165648e-03 -4.483659e-05 9.968671e-01 -1.531824e-02 9.968049e-01 -1.527928e-02 3.096759e-03 -5.176421e-06
3.200000e+09 3.168788e-03 -4.668708e-05 9.968545e-01 -1.581161e-02 9.967931e-01 -1.577153e-02 3.100434e-03 -5.842049e-06
3.300000e+09 3.172022e-03 -4.857558e-05 9.968416e-01 -1.630490e-02 9.967808e-01 -1.626372e-02 3.104219e-03 -6.554498e-06
3.400000e+09 3.175350e-03 -5.050320e-05 9.968282e-01 -1.679812e-02 9.967682e-01 -1.675585e-02 3.108113e-03 -7.315129e-06
3.500000e+09 3.178772e-03 -5.247106e-05 9.968145e-01 -1.729127e-02 9.967552e-01 -1.724792e-02 3.112116e-03 -8.125292e-06
3.600000e+09 3.182287e-03 -5.448026e-05 9.968003e-01 -1.778434e-02 9.967419e-01 -1.773993e-02 3.116227e-03 -8.986327e-06
3.700000e+09 3.185894e-03 -5.653189e-05 9.967858e-01 -1.827732e-02 9.967281e-01 -1.823187e-02 3.120444e-03 -9.899566e-06
3.800000e+09 3.189593e-03 -5.862704e-05 9.967709e-01 -1.877023e-02 9.967141e-01 -1.872374e-02 3.124769e-03 -1.086633e-05
3.900000e+09 3.193384e-03 -6.076678e-05 9.967556e-01 -1.926305e-02 9.966996e-01 -1.921555e-02 3.129199e-03 -1.188793e-05
4.000000e+09 3.197265e-03 -6.295219e-05 9.967400e-01 -1.975579e-02 9.966848e-01 -1.970728e-02 3.133735e-03 -1.296566e-05
4.100000e+09 3.201237e-03 -6.518433e-05 9.967239e-01 -2.024843e-02 9.966697e-01 -2.019894e-02 3.138375e-03 -1.410082e-05
4.200000e+09 3.205299e-03 -6.746425e-05 9.967075e-01 -2.074099e-02 9.966541e-01 -2.069053e-02 3.143118e-03 -1.529468e-05
4.300000e+09 3.209450e-03 -6.979301e-05 9.966907e-01 -2.123345e-02 9.966382e-01 -2.118204e-02 3.147964e-03 -1.654850e-05
4.400000e+09 3.213689e-03 -7.217165e-05 9.966735e-01 -2.172582e-02 9.966220e-01 -2.167347e-02 3.152912e-03 -1.786356e-05
4.500000e+09 3.218016e-03 -7.460119e-05 9.966560e-01 -2.221810e-02 9.966054e-01 -2.216483e-02 3.157962e-03 -1.924108e-05
4.600000e+09 3.222431e-03 -7.708266e-05 9.966380e-01 -2.271028e-02 9.965884e-01 -2.265610e-02 3.163112e-03 -2.068230e-05
4.700000e+09 3.226932e-03 -7.961707e-05 9.966197e-01 -2.320235e-02 9.965711e-01 -2.314730e-02 3.168361e-03 -2.218844e-05
4.800000e+09 3.231519e-03 -8.220543e-05 9.966011e-01 -2.369433e-02 9.965534e-01 -2.363841e-02 3.173709e-03 -2.376071e-05
4.900000e+09 3.236191e-03 -8.484873e-05 9.965820e-01 -2.418620e-02 9.965354e-01 -2.412943e-02 3.179155e-03 -2.540030e-05
5.000000e+09 3.240948e-03 -8.754796e-05 9.965626e-01 -2.467797e-02 9.965170e-01 -2.462037e-02 3.184698e-03 -2.710839e-05
5.100000e+09 3.245789e-03 -9.030409e-05 9.965428e-01 -2.516963e-02 9.964982e-01 -2.511122e-02 3.190337e-03 -2.888615e-05
5.200000e+09 3.250713e-03 -9.311810e-05 9.965227e-01 -2.566119e-02 9.964792e-01 -2.560198e-02 3.196071e-03 -3.073474e-05
5.300000e+09 3.255720e-03 -9.599095e-05 9.965022e-01 -2.615263e-02 9.964597e-01 -2.609265e-02 3.201899e-03 -3.265531e-05
5.400000e+09 3.260809e-03 -9.892357e-05 9.964813e-01 -2.664396e-02 9.964399e-01 -2.658323e-02 3.207821e-03 -3.464897e-05
5.500000e+09 3.265978e-03 -1.019169e-04 9.964601e-01 -2.713518e-02 9.964198e-01 -2.707372e-02 3.213835e-03 -3.671684e-05
5.600000e+09 3.271228e-03 -1.049719e-04 9.964385e-01 -2.762628e-02 9.963993e-01 -2.756410e-02 3.219940e-03 -3.886003e-05
5.700000e+09 3.276558e-03 -1.080895e-04 9.964166e-01 -2.811727e-02 9.963785e-01 -2.805440e-02 3.226135e-03 -4.107962e-05
5.800000e+09 3.281966e-03 -1.112705e-04 9.963943e-01 -2.860814e-02 9.963573e-01 -2.854459e-02 3.232420e-03 -4.337668e-05
5.900000e+09 3.287452e-03 -1.145159e-04 9.963716e-01 -2.909889e-02 9.963358e-01 -2.903469e-02 3.238793e-03 -4.575228e-05
6.000000e+09 3.293016e-03 -1.178266e-04 9.963486e-01 -2.958952e-02 9.963139e-01 -2.952468e-02 3.245253e-03 -4.820745e-05
6.100000e+09 3.298656e-03 -1.212034e-04 9.963252e-01 -3.008002e-02 9.962917e-01 -3.001458e-02 3.251800e-03 -5.074322e-05
6.200000e+09 3.304371e-03 -1.246472e-04 9.963015e-01 -3.057040e-02 9.962692e-01 -3.050437e-02 3.258432e-03 -5.336061e-05
6.300000e+09 3.310162e-03 -1.281588e-04 9.962775e-01 -3.106066e-02 9.962463e-01 -3.099405e-02 3.265148e-03 -5.606062e-05
6.400000e+09 3.316026e-03 -1.317392e-04 9.962531e-01 -3.155079e-02 9.962231e-01 -3.148363e-02 3.271947e-03 -5.884422e-05
6.500000e+09 3.321963e-03 -1.353891e-04 9.962283e-01 -3.204079e-02 9.961995e-01 -3.197311e-02 3.278828e-03 -6.171240e-05
6.600000e+09 3.327973e-03 -1.391093e-04 9.962032e-01 -3.253066e-02 9.961756e-01 -3.246247e-02 3.285790e-03 -6.466609e-05
6.700000e+09 3.334054e-03 -1.429007e-04 9.961778e-01 -3.302040e-02 9.961514e-01 -3.295173e-02 3.292831e-03 -6.770623e-05
6.800000e+09 3.340206e-03 -1.467640e-04 9.961520e-01 -3.351000e-02 9.961269e-01 -3.344087e-02 3.299952e-03 -7.083375e-05
6.900000e+09 3.346428e-03 -1.507001e-04 9.961259e-01 -3.399947e-02 9.961020e-01 -3.392991e-02 3.307150e-03 -7.404955e-05
7.000000e+09 3.352718e-03 -1.547097e-04 9.960994e-01 -3.448881e-02 9.960768e-01 -3.441883e-02 3.314424e-03 -7.735452e-05
7.100000e+09 3.359076e-03 -1.587936e-04 9.960726e-01 -3.497801e-02 9.960512e-01 -3.490763e-02 3.321774e-03 -8.074953e-05
7.200000e+09 3.365501e-03 -1.629525e-04 9.960455e-01 -3.546707e-02 9.960254e-01 -3.539632e-02 3.329197e-03 -8.423544e-05
7.300000e+09 3.371993e-03 -1.671872e-04 9.960181e-01 -3.595600e-02 9.959992e-01 -3.588490e-02 3.336694e-03 -8.781308e-05
7.400000e+09 3.378549e-03 -1.714984e-04 9.959903e-01 -3.644478e-02 9.959727e-01 -3.637336e-02 3.344262e-03 -9.148328e-05
7.500000e+09 3.385170e-03 -1.758868e-04 9.959622e-01 -3.693342e-02 9.959458e-01 -3.686170e-02 3.351901e-03 -9.524684e-05
7.600000e+09 3.391854e-03 -1.803531e-04 9.959337e-01 -3.742193e-02 9.959187e-01 -3.734992e-02 3.359610e-03 -9.910455e-05
7.700000e+09 3.398601e-03 -1.848980e-04 9.959050e-01 -3.791028e-02 9.958912e-01 -3.783802e-02 3.367386e-03 -1.030572e-04
7.800000e+09 3.405409e-03 -1.895221e-04 9.958759e-01 -3.839850e-02 9.958634e-01 -3.832600e-02 3.375230e-03 -1.071055e-04
7.900000e+09 3.412278e-03 -1.942262e-04 9.958465e-01 -3.888656e-02 9.958353e-01 -3.881385e-02 3.383139e-03 -1.112502e-04
8.000000e+09 3.419206e-03 -1.990109e-04 9.958168e-01 -3.937448e-02 9.958068e-01 -3.930159e-02 3.391112e-03 -1.154921e-04
8.100000e+09 3.426193e-03 -2.038769e-04 9.957868e-01 -3.986226e-02 9.957781e-01 -3.978920e-02 3.399150e-03 -1.198318e-04
8.200000e+09 3.433237e-03 -2.088246e-04 9.957564e-01 -4.034988e-02 9.957491e-01 -4.027668e-02 3.407249e-03 -1.242701e-04
8.300000e+09 3.440338e-03 -2.138549e-04 9.957258e-01 -4.083736e-02 9.957197e-01 -4.076404e-02 3.415408e-03 -1.288075e-04
8.400000e+09 3.447495e-03 -2.189682e-04 9.956948e-01 -4.132469e-02 9.956900e-01 -4.125127e-02 3.423628e-03 -1.334448e-04
8.500000e+09 3.454706e-03 -2.241652e-04 9.956635e-01 -4.181186e-02 9.956600e-01 -4.173838e-02 3.431906e-03 -1.381826e-04
8.600000e+09 3.461971e-03 -2.294464e-04 9.956319e-01 -4.229889e-02 9.956297e-01 -4.222535e-02 3.440240e-03 -1.430215e-04
8.700000e+09 3.469289e-03 -2.348124e-04 9.956000e-01 -4.278576e-02 9.955992e-01 -4.271220e-02 3.448631e-03 -1.479621e-04
8.800000e+09 3.476658e-03 -2.402638e-04 9.955678e-01 -4.327248e-02 9.955683e-01 -4.319891e-02 3.457076e-03 -1.530049e-04
8.900000e+09 3.484079e-03 -2.458010e-04 9.955353e-01 -4.375904e-02 9.955371e-01 -4.368550e-02 3.465574e-03 -1.581506e-04
9.000000e+09 3.491548e-03 -2.514246e-04 9.955026e-01 -4.424545e-02 9.955056e-01 -4.417195e-02 3.474124e-03 -1.633997e-04
9.100000e+09 3.499067e-03 -2.571352e-04 9.954695e-01 -4.473171e-02 9.954738e-01 -4.465828e-02 3.482724e-03 -1.687527e-04
9.200000e+09 3.506633e-03 -2.629331e-04 9.954361e-01 -4.521780e-02 9.954417e-01 -4.514447e-02 3.491374e-03 -1.742101e-04
9.300000e+09 3.514245e-03 -2.688189e-04 9.954024e-01 -4.570375e-02 9.954093e-01 -4.563052e-02 3.500072e-03 -1.797725e-04
9.400000e+09 3.521904e-03 -2.747931e-04 9.953684e-01 -4.618953e-02 9.953766e-01 -4.611644e-02 3.508816e-03 -1.854402e-04
9.500000e+09 3.529606e-03 -2.808561e-04 9.953342e-01 -4.667516e-02 9.953436e-01 -4.660223e-02 3.517606e-03 -1.912138e-04
9.600000e+09 3.537352e-03 -2.870083e-04 9.952996e-01 -4.716062e-02 9.953104e-01 -4.708788e-02 3.526440e-03 -1.970936e-04
9.700000e+09 3.545141e-03 -2.932502e-04 9.952648e-01 -4.764593e-02 9.952768e-01 -4.757340e-02 3.535317e-03 -2.030802e-04
9.800000e+09 3.552971e-03 -2.995822e-04 9.952297e-01 -4.813108e-02 9.952430e-01 -4.805878e-02 3.544235e-03 -2.091739e-04
9.900000e+09 3.560841e-03 -3.060047e-04 9.951943e-01 -4.861608e-02 9.952089e-01 -4.854402e-02 3.553193e-03 -2.153750e-04
1.000000e+10 3.568751e-03 -3.125180e-04 9.951586e-01 -4.910091e-02 9.951744e-01 -4.902912e-02 3.562190e-03 -2.216840e-04
1.010000e+10 3.576699e-03 -3.191226e-04 9.951227e-01 -4.958558e-02 9.951397e-01 -4.951409e-02 3.571224e-03 -2.281013e-04
1.020000e+10 3.584684e-03 -3.258189e-04 9.950864e-01 -5.007009e-02 9.951048e-01 -4.999892e-02 3.580295e-03 -2.346270e-04
1.030000e+10 3.592705e-03 -3.326071e-04 9.950499e-01 -5.055443e-02 9.950695e-01 -5.048360e-02 3.589400e-03 -2.412616e-04
1.040000e+10 3.600761e-03 -3.394876e-04 9.950132e-01 -5.103862e-02 9.950340e-01 -5.096815e-02 3.598539e-03 -2.480053e-04
1.050000e+10 3.608851e-03 -3.464607e-04 9.949761e-01 -5.152265e-02 9.949982e-01 -5.145256e-02 3.607710e-03 -2.548585e-04
1.060000e+10 3.616974e-03 -3.535267e-04 9.949388e-01 -5.200651e-02 9.949621e-01 -5.193683e-02 3.616912e-03 -2.618213e-04
1.070000e+10 3.625128e-03 -3.606859e-04 9.949012e-01 -5.249021e-02 9.949257e-01 -5.242096e-02 3.626143e-03 -2.688940e-04
1.080000e+10 3.633314e-03 -3.679387e-04 9.948634e-01 -5.297375e-02 9.948891e-01 -5.290495e-02 3.635402e-03 -2.760769e-04
1.090000e+10 3.641529e-03 -3.752852e-04 9.948253e-01 -5.345712e-02 9.948522e-01 -5.338880e-02 3.644688e-03 -2.833701e-04
1.100000e+10 3.649773e-03 -3.827257e-04 9.947869e-01 -5.394034e-02 9.948150e-01 -5.387250e-02 3.654000e-03 -2.907738e-04
1.110000e+10 3.658044e-03 -3.902604e-04 9.947483e-01 -5.442339e-02 9.947776e-01 -5.435606e-02 3.663335e-03 -2.982883e-04
1.120000e+10 3.666342e-03 -3.978897e-04 9.947094e-01 -5.490628e-02 9.947399e-01 -5.483949e-02 3.672694e-03 -3.059136e-04
1.130000e+10 3.674665e-03 -4.056136e-04 9.946703e-01 -5.538900e-02 9.947019e-01 -5.532276e-02 3.682074e-03 -3.136498e-04
1.140000e+10 3.683012e-03 -4.134324e-04 9.946309e-01 -5.587156e-02 9.946637e-01 -5.580590e-02 3.691474e-03 -3.214972e-04
1.150000e+10 3.691383e-03 -4.213463e-04 9.945913e-01 -5.635396e-02 9.946252e-01 -5.628890e-02 3.700892e-03 -3.294558e-04
1.160000e+10 3.699776e-03 -4.293554e-04 9.945514e-01 -5.683620e-02 9.945864e-01 -5.677175e-02 3.710328e-03 -3.375256e-04
1.170000e+10 3.708190e-03 -4.374599e-04 9.945113e-01 -5.731827e-02 9.945474e-01 -5.725445e-02 3.719781e-03 -3.457068e-04
1.180000e+10 3.716624e-03 -4.456600e-04 9.944709e-01 -5.780019e-02 9.945081e-01 -5.773702e-02 3.729248e-03 -3.539994e-04
1.190000e+10 3.725077e-03 -4.539557e-04 9.944303e-01 -5.828194e-02 9.944686e-01 -5.821944e-02 3.738729e-03 -3.624033e-04
1.200000e+10 3.733547e-03 -4.623472e-04 9.943894e-01 -5.876352e-02 9.944289e-01 -5.870172e-02 3.748221e-03 -3.709188e-04
1.210000e+10 3.742035e-03 -4.708347e-04 9.943484e-01 -5.924495e-02 9.943888e-01 -5.918386e-02 3.757725e-03 -3.795456e-04
1.220000e+10 3.750538e-03 -4.794181e-04 9.943070e-01 -5.972621e-02 9.943485e-01 -5.966585e-02 3.767238e-03 -3.882839e-04
1.230000e+10 3.759055e-03 -4.880976e-04 9.942655e-01 -6.020731e-02 9.943080e-01 -6.014770e-02 3.776760e-03 -3.971335e-04
1.240000e+10 3.767587e-03 -4.968732e-04 9.942237e-01 -6.068825e-02 9.942673e-01 -6.062940e-02 3.786288e-03 -4.060944e-04
1.250000e+10 3.776130e-03 -5.057450e-04 9.941816e-01 -6.116903e-02 9.942262e-01 -6.111096e-02 3.795822e-03 -4.151666e-04
1.260000e+10 3.784685e-03 -5.147130e-04 9.941394e-01 -6.164965e-02 9.941850e-01 -6.159238e-02 3.805360e-03 -4.243499e-04
1.270000e+10 3.793251e-03 -5.237772e-04 9.940969e-01 -6.213010e-02 9.941435e-01 -6.207366e-02 3.814901e-03 -4.336443e-04
1.280000e+10 3.801826e-03 -5.329378e-04 9.940542e-01 -6.261040e-02 9.941017e-01 -6.255479e-02 3.824444e-03 -4.430495e-04
1.290000e+10 3.810408e-03 -5.421946e-04 9.940112e-01 -6.309054e-02 9.940597e-01 -6.303578e-02 3.833988e-03 -4.525656e-04
1.300000e+10 3.818999e-03 -5.515476e-04 9.939681e-01 -6.357052e-02 9.940175e-01 -6.351663e-02 3.843531e-03 -4.621923e-04
1.310000e+10 3.827595e-03 -5.609969e-04 9.939247e-01 -6.405034e-02 9.939751e-01 -6.399733e-02 3.853071e-03 -4.719294e-04
1.320000e+10 3.836196e-03 -5.705423e-04 9.938811e-01 -6.453000e-02 9.939324e-01 -6.447789e-02 3.862608e-03 -4.817768e-04
1.330000e+10 3.844801e-03 -5.801839e-04 9.938373e-01 -6.500950e-02 9.938894e-01 -6.495831e-02 3.872141e-03 -4.917343e-04
1.340000e+10 3.853409e-03 -5.899216e-04 9.937933e-01 -6.548884e-02 9.938463e-01 -6.543858e-02 3.881668e-03 -5.018017e-04
1.350000e+10 3.862019e-03 -5.997552e-04 9.937490e-01 -6.596803e-02 9.938029e-01 -6.591872e-02 3.891187e-03 -5.119786e-04
1.360000e+10 3.870630e-03 -6.096848e-04 9.937046e-01 -6.644706e-02 9.937593e-01 -6.639871e-02 3.900698e-03 -5.222650e-04
1.370000e+10 3.879241e-03 -6.197102e-04 9.936599e-01 -6.692594e-02 9.937154e-01 -6.687856e-02 3.910200e-03 -5.326604e-04
1.380000e+10 3.887851e-03 -6.298313e-04 9.936150e-01 -6.740466e-02 9.936713e-01 -6.735827e-02 3.919690e-03 -5.431646e-04
1.390000e+10 3.896458e-03 -6.400479e-04 9.935699e-01 -6.788323e-02 9.936270e-01 -6.783784e-02 3.929169e-03 -5.537774e-04
1.400000e+10 3.905062e-03 -6.503600e-04 9.935247e-01 -6.836164e-02 9.935825e-01 -6.831726e-02 3.938634e-03 -5.644984e-04
1.410000e+10 3.913661e-03 -6.607674e-04 9.934792e-01 -6.883990e-02 9.935378e-01 -6.879655e-02 3.948085e-03 -5.753273e-04
1.420000e+10 3.922256e-03 -6.712699e-04 9.934335e-01 -6.931800e-02 9.934928e-01 -6.927570e-02 3.957520e-03 -5.862638e-04
1.430000e+10 3.930844e-03 -6.818674e-04 9.933876e-01 -6.979596e-02 9.934476e-01 -6.975471e-02 3.966938e-03 -5.973074e-04
1.440000e+10 3.939424e-03 -6.925596e-04 9.933415e-01 -7.027376e-02 9.934022e-01 -7.023357e-02 3.976338e-03 -6.084579e-04
1.450000e+10 3.947997e-03 -7.033464e-04 9.932952e-01 -7.075141e-02 9.933566e-01 -7.071230e-02 3.985719e-03 -6.197148e-04
1.460000e+10 3.956559e-03 -7.142276e-04 9.932487e-01 -7.122892e-02 9.933108e-01 -7.119089e-02 3.995079e-03 -6.310778e-04
1.470000e+10 3.965112e-03 -7.252029e-04 9.932020e-01 -7.170627e-02 9.932647e-01 -7.166934e-02 4.004417e-03 -6.425464e-04
1.480000e+10 3.973653e-03 -7.362722e-04 9.931552e-01 -7.218348e-02 9.932184e-01 -7.214766e-02 4.013733e-03 -6.541203e-04
1.490000e+10 3.982182e-03 -7.474351e-04 9.931081e-01 -7.266053e-02 9.931720e-01 -7.262584e-02 4.023025e-03 -6.657989e-04
1.500000e+10 3.990698e-03 -7.586915e-04 9.930608e-01 -7.313745e-02 9.931253e-01 -7.310388e-02 4.032292e-03 -6.775818e-04
1.510000e+10 3.999199e-03 -7.700410e-04 9.930134e-01 -7.361421e-02 9.930784e-01 -7.358178e-02 4.041533e-03 -6.894687e-04
1.520000e+10 4.007685e-03 -7.814834e-04 9.929658e-01 -7.409083e-02 9.930313e-01 -7.405955e-02 4.050746e-03 -7.014589e-04
1.530000e+10 4.016155e-03 -7.930184e-04 9.929180e-01 -7.456731e-02 9.929840e-01 -7.453718e-02 4.059931e-03 -7.135520e-04
1.540000e+10 4.024607e-03 -8.046457e-04 9.928700e-01 -7.504364e-02 9.929365e-01 -7.501468e-02 4.069086e-03 -7.257474e-04
1.550000e+10 4.033042e-03 -8.163650e-04 9.928218e-01 -7.551984e-02 9.928888e-01 -7.549205e-02 4.078211e-03 -7.380448e-04
1.560000e+10 4.041457e-03 -8.281760e-04 9.927734e-01 -7.599589e-02 9.928409e-01 -7.596928e-02 4.087304e-03 -7.504435e-04
1.570000e+10 4.049852e-03 -8.400784e-04 9.927249e-01 -7.647180e-02 9.927927e-01 -7.644638e-02 4.096364e-03 -7.629430e-04
1.580000e+10 4.058227e-03 -8.520717e-04 9.926762e-01 -7.694757e-02 9.927444e-01 -7.692334e-02 4.105390e-03 -7.755428e-04
1.590000e+10 4.066579e-03 -8.641558e-04 9.926273e-01 -7.742321e-02 9.926959e-01 -7.740018e-02 4.114382e-03 -7.882422e-04
1.600000e+10 4.074909e-03 -8.763301e-04 9.925782e-01 -7.789870e-02 9.926472e-01 -7.787688e-02 4.123337e-03 -8.010408e-04
1.610000e+10 4.083215e-03 -8.885944e-04 9.925289e-01 -7.837406e-02 9.925983e-01 -7.835345e-02 4.132256e-03 -8.139379e-04
1.620000e+10 4.091496e-03 -9.009482e-04 9.924795e-01 -7.884929e-02 9.925492e-01 -7.882990e-02 4.141136e-03 -8.269329e-04
1.630000e+10 4.099752e-03 -9.133912e-04 9.924299e-01 -7.932438e-02 9.924999e-01 -7.930621e-02 4.149978e-03 -8.400252e-04
1.640000e+10 4.107982e-03 -9.259230e-04 9.923801e-01 -7.979934e-02 9.924504e-01 -7.978239e-02 4.158779e-03 -8.532142e-04
