#   Hz   S  RI   R   50
!
0.000000e+00 2.168874e-03 0.000000e+00 9.979173e-01 0.000000e+00 9.979247e-01 0.000000e+00 2.161390e-03 0.000000e+00
1.000000e+08 2.168914e-03 -5.204913e-05 9.979172e-01 -3.784684e-04 9.979246e-01 -3.793810e-04 2.161383e-03 -6.269549e-05
2.000000e+08 2.169034e-03 -1.040992e-04 9.979168e-01 -7.569350e-04 9.979242e-01 -7.587602e-04 2.161362e-03 -1.253919e-04
3.000000e+08 2.169234e-03 -1.561513e-04 9.979161e-01 -1.135398e-03 9.979235e-01 -1.138136e-03 2.161327e-03 -1.880901e-04
4.000000e+08 2.169514e-03 -2.082062e-04 9.979152e-01 -1.513856e-03 9.979226e-01 -1.517506e-03 2.161278e-03 -2.507911e-04
5.000000e+08 2.169873e-03 -2.602650e-04 9.979140e-01 -1.892306e-03 9.979214e-01 -1.896869e-03 2.161215e-03 -3.134957e-04
6.000000e+08 2.170312e-03 -3.123287e-04 9.979125e-01 -2.270747e-03 9.979199e-01 -2.276223e-03 2.161137e-03 -3.762048e-04
7.000000e+08 2.170831e-03 -3.643982e-04 9.979108e-01 -2.649178e-03 9.979182e-01 -2.655566e-03 2.161046e-03 -4.389194e-04
8.000000e+08 2.171429e-03 -4.164744e-04 9.979088e-01 -3.027595e-03 9.979162e-01 -3.034897e-03 2.160940e-03 -5.016404e-04
9.000000e+08 2.172107e-03 -4.685584e-04 9.979065e-01 -3.405999e-03 9.979139e-01 -3.414213e-03 2.160819e-03 -5.643687e-04
1.000000e+09 2.172864e-03 -5.206511e-04 9.979040e-01 -3.784386e-03 9.979114e-01 -3.793514e-03 2.160684e-03 -6.271051e-04
1.100000e+09 2.173701e-03 -5.727534e-04 9.979012e-01 -4.162755e-03 9.979086e-01 -4.172796e-03 2.160534e-03 -6.898506e-04
1.200000e+09 2.174616e-03 -6.248664e-04 9.978981e-01 -4.541104e-03 9.979055e-01 -4.552058e-03 2.160370e-03 -7.526061e-04
1.300000e+09 2.175611e-03 -6.769909e-04 9.978948e-01 -4.919432e-03 9.979022e-01 -4.931300e-03 2.160190e-03 -8.153725e-04
1.400000e+09 2.176684e-03 -7.291280e-04 9.978912e-01 -5.297736e-03 9.978986e-01 -5.310517e-03 2.159996e-03 -8.781507e-04
1.500000e+09 2.177837e-03 -7.812785e-04 9.978873e-01 -5.676015e-03 9.978948e-01 -5.689710e-03 2.159785e-03 -9.409415e-04
1.600000e+09 2.179067e-03 -8.334435e-04 9.978832e-01 -6.054267e-03 9.978906e-01 -6.068877e-03 2.159560e-03 -1.003746e-03
1.700000e+09 2.180376e-03 -8.856238e-04 9.978788e-01 -6.432491e-03 9.978863e-01 -6.448014e-03 2.159318e-03 -1.066565e-03
1.800000e+09 2.181763e-03 -9.378205e-04 9.978742e-01 -6.810684e-03 9.978816e-01 -6.827122e-03 2.159061e-03 -1.129399e-03
1.900000e+09 2.183227e-03 -9.900344e-04 9.978693e-01 -7.188845e-03 9.978767e-01 -7.206198e-03 2.158788e-03 -1.192249e-03
2.000000e+09 2.184770e-03 -1.042267e-03 9.978641e-01 -7.566972e-03 9.978715e-01 -7.585240e-03 2.158497e-03 -1.255117e-03
2.100000e+09 2.186389e-03 -1.094518e-03 9.978586e-01 -7.945064e-03 9.978661e-01 -7.964246e-03 2.158191e-03 -1.318002e-03
2.200000e+09 2.188086e-03 -1.146789e-03 9.978530e-01 -8.323118e-03 9.978604e-01 -8.343216e-03 2.157867e-03 -1.380906e-03
2.300000e+09 2.189859e-03 -1.199081e-03 9.978470e-01 -8.701134e-03 9.978544e-01 -8.722147e-03 2.157526e-03 -1.443830e-03
2.400000e+09 2.191709e-03 -1.251396e-03 9.978408e-01 -9.079109e-03 9.978482e-01 -9.101037e-03 2.157167e-03 -1.506774e-03
2.500000e+09 2.193635e-03 -1.303733e-03 9.978343e-01 -9.457041e-03 9.978418e-01 -9.479885e-03 2.156790e-03 -1.569740e-03
2.600000e+09 2.195637e-03 -1.356093e-03 9.978276e-01 -9.834929e-03 9.978350e-01 -9.858690e-03 2.156396e-03 -1.632728e-03
2.700000e+09 2.197715e-03 -1.408479e-03 9.978206e-01 -1.021277e-02 9.978280e-01 -1.023745e-02 2.155982e-03 -1.695739e-03
2.800000e+09 2.199868e-03 -1.460890e-03 9.978133e-01 -1.059057e-02 9.978208e-01 -1.061616e-02 2.155550e-03 -1.758774e-03
2.900000e+09 2.202096e-03 -1.513327e-03 9.978058e-01 -1.096831e-02 9.978133e-01 -1.099482e-02 2.155098e-03 -1.821834e-03
3.000000e+09 2.204399e-03 -1.565792e-03 9.977980e-01 -1.134601e-02 9.978055e-01 -1.137344e-02 2.154627e-03 -1.884919e-03
3.100000e+09 2.206775e-03 -1.618285e-03 9.977900e-01 -1.172365e-02 9.977975e-01 -1.175200e-02 2.154135e-03 -1.948031e-03
3.200000e+09 2.209226e-03 -1.670807e-03 9.977817e-01 -1.210124e-02 9.977892e-01 -1.213051e-02 2.153623e-03 -2.011170e-03
3.300000e+09 2.211749e-03 -1.723359e-03 9.977732e-01 -1.247878e-02 9.977807e-01 -1.250896e-02 2.153090e-03 -2.074337e-03
3.400000e+09 2.214346e-03 -1.775941e-03 9.977644e-01 -1.285625e-02 9.977719e-01 -1.288735e-02 2.152536e-03 -2.137533e-03
3.500000e+09 2.217016e-03 -1.828556e-03 9.977554e-01 -1.323367e-02 9.977629e-01 -1.326569e-02 2.151960e-03 -2.200759e-03
3.600000e+09 2.219758e-03 -1.881203e-03 9.977461e-01 -1.361103e-02 9.977536e-01 -1.364397e-02 2.151362e-03 -2.264014e-03
3.700000e+09 2.222571e-03 -1.933884e-03 9.977366e-01 -1.398833e-02 9.977441e-01 -1.402219e-02 2.150741e-03 -2.327302e-03
3.800000e+09 2.225456e-03 -1.986598e-03 9.977268e-01 -1.436556e-02 9.977343e-01 -1.440034e-02 2.150097e-03 -2.390621e-03
3.900000e+09 2.228411e-03 -2.039348e-03 9.977168e-01 -1.474273e-02 9.977243e-01 -1.477843e-02 2.149429e-03 -2.453972e-03
4.000000e+09 2.231437e-03 -2.092134e-03 9.977065e-01 -1.511984e-02 9.977140e-01 -1.515645e-02 2.148738e-03 -2.517358e-03
4.100000e+09 2.234533e-03 -2.144957e-03 9.976960e-01 -1.549687e-02 9.977035e-01 -1.553441e-02 2.148021e-03 -2.580777e-03
4.200000e+09 2.237698e-03 -2.197817e-03 9.976852e-01 -1.587384e-02 9.976928e-01 -1.591230e-02 2.147280e-03 -2.644232e-03
4.300000e+09 2.240932e-03 -2.250715e-03 9.976742e-01 -1.625074e-02 9.976818e-01 -1.629012e-02 2.146512e-03 -2.707722e-03
4.400000e+09 2.244235e-03 -2.303653e-03 9.976629e-01 -1.662756e-02 9.976705e-01 -1.666786e-02 2.145719e-03 -2.771249e-03
4.500000e+09 2.247605e-03 -2.356631e-03 9.976514e-01 -1.700432e-02 9.976590e-01 -1.704554e-02 2.144898e-03 -2.834813e-03
4.600000e+09 2.251043e-03 -2.409649e-03 9.976397e-01 -1.738099e-02 9.976473e-01 -1.742314e-02 2.144051e-03 -2.898415e-03
4.700000e+09 2.254548e-03 -2.462709e-03 9.976277e-01 -1.775760e-02 9.976353e-01 -1.780066e-02 2.143175e-03 -2.962055e-03
4.800000e+09 2.258119e-03 -2.515812e-03 9.976155e-01 -1.813412e-02 9.976231e-01 -1.817811e-02 2.142271e-03 -3.025735e-03
4.900000e+09 2.261755e-03 -2.568957e-03 9.976031e-01 -1.851057e-02 9.976106e-01 -1.855548e-02 2.141338e-03 -3.089454e-03
5.000000e+09 2.265457e-03 -2.622146e-03 9.975904e-01 -1.888694e-02 9.975980e-01 -1.893277e-02 2.140375e-03 -3.153215e-03
5.100000e+09 2.269223e-03 -2.675380e-03 9.975774e-01 -1.926322e-02 9.975850e-01 -1.930998e-02 2.139382e-03 -3.217016e-03
5.200000e+09 2.273053e-03 -2.728659e-03 9.975643e-01 -1.963943e-02 9.975719e-01 -1.968711e-02 2.138358e-03 -3.280860e-03
5.300000e+09 2.276947e-03 -2.781985e-03 9.975509e-01 -2.001555e-02 9.975585e-01 -2.006415e-02 2.137303e-03 -3.344746e-03
5.400000e+09 2.280903e-03 -2.835357e-03 9.975373e-01 -2.039158e-02 9.975449e-01 -2.044111e-02 2.136215e-03 -3.408676e-03
5.500000e+09 2.284922e-03 -2.888776e-03 9.975234e-01 -2.076753e-02 9.975310e-01 -2.081798e-02 2.135094e-03 -3.472649e-03
5.600000e+09 2.289002e-03 -2.942244e-03 9.975093e-01 -2.114340e-02 9.975169e-01 -2.119477e-02 2.133940e-03 -3.536667e-03
5.700000e+09 2.293143e-03 -2.995760e-03 9.974950e-01 -2.151917e-02 9.975026e-01 -2.157147e-02 2.132752e-03 -3.600731e-03
5.800000e+09 2.297344e-03 -3.049326e-03 9.974805e-01 -2.189486e-02 9.974881e-01 -2.194808e-02 2.131529e-03 -3.664839e-03
5.900000e+09 2.301605e-03 -3.102943e-03 9.974657e-01 -2.227045e-02 9.974733e-01 -2.232460e-02 2.130270e-03 -3.728994e-03
6.000000e+09 2.305925e-03 -3.156610e-03 9.974508e-01 -2.264596e-02 9.974583e-01 -2.270103e-02 2.128975e-03 -3.793197e-03
6.100000e+09 2.310303e-03 -3.210329e-03 9.974356e-01 -2.302137e-02 9.974431e-01 -2.307737e-02 2.127643e-03 -3.857446e-03
6.200000e+09 2.314738e-03 -3.264100e-03 9.974201e-01 -2.339669e-02 9.974277e-01 -2.345361e-02 2.126274e-03 -3.921744e-03
6.300000e+09 2.319231e-03 -3.317924e-03 9.974045e-01 -2.377191e-02 9.974121e-01 -2.382976e-02 2.124866e-03 -3.986090e-03
6.400000e+09 2.323780e-03 -3.371801e-03 9.973886e-01 -2.414704e-02 9.973962e-01 -2.420581e-02 2.123419e-03 -4.050485e-03
6.500000e+09 2.328384e-03 -3.425733e-03 9.973725e-01 -2.452207e-02 9.973801e-01 -2.458177e-02 2.121933e-03 -4.114930e-03
6.600000e+09 2.333044e-03 -3.479719e-03 9.973562e-01 -2.489701e-02 9.973638e-01 -2.495763e-02 2.120406e-03 -4.179425e-03
6.700000e+09 2.337757e-03 -3.533761e-03 9.973397e-01 -2.527184e-02 9.973473e-01 -2.533339e-02 2.118837e-03 -4.243970e-03
6.800000e+09 2.342524e-03 -3.587858e-03 9.973230e-01 -2.564658e-02 9.973306e-01 -2.570906e-02 2.117227e-03 -4.308567e-03
6.900000e+09 2.347344e-03 -3.642012e-03 9.973061e-01 -2.602122e-02 9.973136e-01 -2.608462e-02 2.115573e-03 -4.373216e-03
7.000000e+09 2.352215e-03 -3.696223e-03 9.972889e-01 -2.639576e-02 9.972965e-01 -2.646008e-02 2.113876e-03 -4.437916e-03
7.100000e+09 2.357138e-03 -3.750491e-03 9.972716e-01 -2.677019e-02 9.972791e-01 -2.683544e-02 2.112135e-03 -4.502669e-03
7.200000e+09 2.362111e-03 -3.804818e-03 9.972540e-01 -2.714452e-02 9.972616e-01 -2.721070e-02 2.110349e-03 -4.567475e-03
7.300000e+09 2.367135e-03 -3.859203e-03 9.972363e-01 -2.751875e-02 9.972438e-01 -2.758586e-02 2.108517e-03 -4.632335e-03
7.400000e+09 2.372207e-03 -3.913648e-03 9.972183e-01 -2.789288e-02 9.972258e-01 -2.796091e-02 2.106638e-03 -4.697248e-03
7.500000e+09 2.377327e-03 -3.968152e-03 9.972001e-01 -2.826690e-02 9.972076e-01 -2.833585e-02 2.104711e-03 -4.762216e-03
7.600000e+09 2.382495e-03 -4.022716e-03 9.971818e-01 -2.864082e-02 9.971893e-01 -2.871069e-02 2.102737e-03 -4.827238e-03
7.700000e+09 2.387710e-03 -4.077341e-03 9.971632e-01 -2.901463e-02 9.971707e-01 -2.908543e-02 2.100713e-03 -4.892316e-03
7.800000e+09 2.392971e-03 -4.132028e-03 9.971444e-01 -2.938833e-02 9.971519e-01 -2.946006e-02 2.098639e-03 -4.957449e-03
7.900000e+09 2.398277e-03 -4.186776e-03 9.971255e-01 -2.976193e-02 9.971329e-01 -2.983458e-02 2.096515e-03 -5.022637e-03
8.000000e+09 2.403627e-03 -4.241586e-03 9.971063e-01 -3.013542e-02 9.971137e-01 -3.020899e-02 2.094339e-03 -5.087882e-03
8.100000e+09 2.409021e-03 -4.296458e-03 9.970870e-01 -3.050880e-02 9.970944e-01 -3.058329e-02 2.092110e-03 -5.153184e-03
8.200000e+09 2.414457e-03 -4.351394e-03 9.970674e-01 -3.088207e-02 9.970748e-01 -3.095749e-02 2.089829e-03 -5.218542e-03
8.300000e+09 2.419936e-03 -4.406393e-03 9.970477e-01 -3.125523e-02 9.970551e-01 -3.133157e-02 2.087493e-03 -5.283957e-03
8.400000e+09 2.425456e-03 -4.461456e-03 9.970278e-01 -3.162828e-02 9.970351e-01 -3.170555e-02 2.085103e-03 -5.349430e-03
8.500000e+09 2.431016e-03 -4.516583e-03 9.970077e-01 -3.200122e-02 9.970150e-01 -3.207941e-02 2.082656e-03 -5.414961e-03
8.600000e+09 2.436616e-03 -4.571775e-03 9.969874e-01 -3.237406e-02 9.969947e-01 -3.245317e-02 2.080154e-03 -5.480550e-03
8.700000e+09 2.442255e-03 -4.627032e-03 9.969669e-01 -3.274678e-02 9.969742e-01 -3.282681e-02 2.077593e-03 -5.546197e-03
8.800000e+09 2.447932e-03 -4.682354e-03 9.969463e-01 -3.311939e-02 9.969535e-01 -3.320034e-02 2.074975e-03 -5.611902e-03
8.900000e+09 2.453646e-03 -4.737742e-03 9.969254e-01 -3.349188e-02 9.969327e-01 -3.357375e-02 2.072297e-03 -5.677667e-03
9.000000e+09 2.459396e-03 -4.793196e-03 9.969044e-01 -3.386427e-02 9.969116e-01 -3.394706e-02 2.069560e-03 -5.743490e-03
9.100000e+09 2.465182e-03 -4.848717e-03 9.968832e-01 -3.423654e-02 9.968904e-01 -3.432025e-02 2.066761e-03 -5.809373e-03
9.200000e+09 2.471003e-03 -4.904304e-03 9.968619e-01 -3.460870e-02 9.968690e-01 -3.469333e-02 2.063901e-03 -5.875315e-03
9.300000e+09 2.476857e-03 -4.959958e-03 9.968403e-01 -3.498074e-02 9.968474e-01 -3.506629e-02 2.060978e-03 -5.941317e-03
9.400000e+09 2.482744e-03 -5.015680e-03 9.968186e-01 -3.535268e-02 9.968257e-01 -3.543914e-02 2.057992e-03 -6.007379e-03
9.500000e+09 2.488664e-03 -5.071469e-03 9.967967e-01 -3.572450e-02 9.968038e-01 -3.581188e-02 2.054942e-03 -6.073500e-03
9.600000e+09 2.494615e-03 -5.127327e-03 9.967747e-01 -3.609620e-02 9.967817e-01 -3.618450e-02 2.051826e-03 -6.139682e-03
9.700000e+09 2.500597e-03 -5.183252e-03 9.967524e-01 -3.646780e-02 9.967594e-01 -3.655701e-02 2.048644e-03 -6.205925e-03
9.800000e+09 2.506608e-03 -5.239246e-03 9.967300e-01 -3.683927e-02 9.967370e-01 -3.692940e-02 2.045395e-03 -6.272227e-03
9.900000e+09 2.512648e-03 -5.295309e-03 9.967075e-01 -3.721064e-02 9.967144e-01 -3.730167e-02 2.042079e-03 -6.338591e-03
1.000000e+10 2.518716e-03 -5.351441e-03 9.966848e-01 -3.758189e-02 9.966917e-01 -3.767384e-02 2.038694e-03 -6.405015e-03
1.010000e+10 2.524811e-03 -5.407642e-03 9.966619e-01 -3.795302e-02 9.966687e-01 -3.804588e-02 2.035239e-03 -6.471499e-03
1.020000e+10 2.530933e-03 -5.463912e-03 9.966388e-01 -3.832404e-02 9.966457e-01 -3.841781e-02 2.031714e-03 -6.538045e-03
1.030000e+10 2.537080e-03 -5.520252e-03 9.966156e-01 -3.869495e-02 9.966224e-01 -3.878963e-02 2.028117e-03 -6.604652e-03
1.040000e+10 2.543251e-03 -5.576661e-03 9.965923e-01 -3.906574e-02 9.965990e-01 -3.916133e-02 2.024448e-03 -6.671319e-03
1.050000e+10 2.549447e-03 -5.633141e-03 9.965688e-01 -3.943642e-02 9.965755e-01 -3.953292e-02 2.020706e-03 -6.738048e-03
1.060000e+10 2.555665e-03 -5.689691e-03 9.965451e-01 -3.980699e-02 9.965518e-01 -3.990439e-02 2.016890e-03 -6.804838e-03
1.070000e+10 2.561905e-03 -5.746311e-03 9.965213e-01 -4.017744e-02 9.965279e-01 -4.027574e-02 2.013000e-03 -6.871689e-03
1.080000e+10 2.568167e-03 -5.803001e-03 9.964973e-01 -4.054778e-02 9.965039e-01 -4.064698e-02 2.009033e-03 -6.938601e-03
1.090000e+10 2.574449e-03 -5.859762e-03 9.964732e-01 -4.091800e-02 9.964797e-01 -4.101811e-02 2.004990e-03 -7.005574e-03
1.100000e+10 2.580751e-03 -5.916593e-03 9.964489e-01 -4.128811e-02 9.964554e-01 -4.138912e-02 2.000870e-03 -7.072608e-03
1.110000e+10 2.587071e-03 -5.973496e-03 9.964245e-01 -4.165810e-02 9.964309e-01 -4.176001e-02 1.996671e-03 -7.139703e-03
1.120000e+10 2.593409e-03 -6.030469e-03 9.963999e-01 -4.202799e-02 9.964063e-01 -4.213080e-02 1.992393e-03 -7.206860e-03
1.130000e+10 2.599764e-03 -6.087513e-03 9.963752e-01 -4.239776e-02 9.963816e-01 -4.250146e-02 1.988035e-03 -7.274077e-03
1.140000e+10 2.606135e-03 -6.144628e-03 9.963504e-01 -4.276741e-02 9.963567e-01 -4.287201e-02 1.983595e-03 -7.341356e-03
1.150000e+10 2.612522e-03 -6.201814e-03 9.963254e-01 -4.313696e-02 9.963316e-01 -4.324245e-02 1.979074e-03 -7.408695e-03
1.160000e+10 2.618923e-03 -6.259072e-03 9.963002e-01 -4.350639e-02 9.963064e-01 -4.361278e-02 1.974471e-03 -7.476095e-03
1.170000e+10 2.625337e-03 -6.316401e-03 9.962750e-01 -4.387571e-02 9.962811e-01 -4.398299e-02 1.969783e-03 -7.543555e-03
1.180000e+10 2.631765e-03 -6.373800e-03 9.962496e-01 -4.424492e-02 9.962557e-01 -4.435309e-02 1.965012e-03 -7.611077e-03
1.190000e+10 2.638204e-03 -6.431272e-03 9.962240e-01 -4.461402e-02 9.962301e-01 -4.472307e-02 1.960155e-03 -7.678658e-03
1.200000e+10 2.644655e-03 -6.488814e-03 9.961984e-01 -4.498300e-02 9.962043e-01 -4.509294e-02 1.955211e-03 -7.746301e-03
1.210000e+10 2.651116e-03 -6.546427e-03 9.961725e-01 -4.535188e-02 9.961785e-01 -4.546270e-02 1.950181e-03 -7.814003e-03
1.220000e+10 2.657586e-03 -6.604112e-03 9.961466e-01 -4.572065e-02 9.961525e-01 -4.583235e-02 1.945063e-03 -7.881765e-03
1.230000e+10 2.664065e-03 -6.661868e-03 9.961205e-01 -4.608930e-02 9.961264e-01 -4.620189e-02 1.939856e-03 -7.949587e-03
1.240000e+10 2.670551e-03 -6.719696e-03 9.960943e-01 -4.645785e-02 9.961001e-01 -4.657132e-02 1.934560e-03 -8.017469e-03
1.250000e+10 2.677045e-03 -6.777594e-03 9.960680e-01 -4.682629e-02 9.960737e-01 -4.694063e-02 1.929173e-03 -8.085410e-03
1.260000e+10 2.683545e-03 -6.835564e-03 9.960416e-01 -4.719462e-02 9.960472e-01 -4.730984e-02 1.923695e-03 -8.153411e-03
1.270000e+10 2.690050e-03 -6.893604e-03 9.960150e-01 -4.756284e-02 9.960206e-01 -4.767894e-02 1.918125e-03 -8.221471e-03
1.280000e+10 2.696560e-03 -6.951716e-03 9.959883e-01 -4.793096e-02 9.959938e-01 -4.804792e-02 1.912462e-03 -8.289590e-03
1.290000e+10 2.703073e-03 -7.009898e-03 9.959615e-01 -4.829897e-02 9.959670e-01 -4.841680e-02 1.906705e-03 -8.357767e-03
1.300000e+10 2.709589e-03 -7.068151e-03 9.959345e-01 -4.866687e-02 9.959400e-01 -4.878558e-02 1.900853e-03 -8.426002e-03
1.310000e+10 2.716107e-03 -7.126475e-03 9.959075e-01 -4.903467e-02 9.959128e-01 -4.915424e-02 1.894906e-03 -8.494296e-03
1.320000e+10 2.722627e-03 -7.184869e-03 9.958803e-01 -4.940237e-02 9.958856e-01 -4.952280e-02 1.888863e-03 -8.562648e-03
1.330000e+10 2.729147e-03 -7.243334e-03 9.958530e-01 -4.976996e-02 9.958582e-01 -4.989125e-02 1.882723e-03 -8.631057e-03
1.340000e+10 2.735667e-03 -7.301869e-03 9.958256e-01 -5.013744e-02 9.958308e-01 -5.025959e-02 1.876485e-03 -8.699524e-03
1.350000e+10 2.742186e-03 -7.360475e-03 9.957981e-01 -5.050483e-02 9.958032e-01 -5.062783e-02 1.870149e-03 -8.768048e-03
1.360000e+10 2.748702e-03 -7.419150e-03 9.957704e-01 -5.087211e-02 9.957755e-01 -5.099597e-02 1.863713e-03 -8.836628e-03
1.370000e+10 2.755216e-03 -7.477895e-03 9.957427e-01 -5.123929e-02 9.957477e-01 -5.136400e-02 1.857177e-03 -8.905265e-03
1.380000e+10 2.761727e-03 -7.536710e-03 9.957148e-01 -5.160637e-02 9.957197e-01 -5.173193e-02 1.850539e-03 -8.973958e-03
1.390000e+10 2.768234e-03 -7.595594e-03 9.956869e-01 -5.197335e-02 9.956917e-01 -5.209976e-02 1.843800e-03 -9.042706e-03
1.400000e+10 2.774735e-03 -7.654548e-03 9.956588e-01 -5.234023e-02 9.956636e-01 -5.246748e-02 1.836959e-03 -9.111510e-03
1.410000e+10 2.781231e-03 -7.713570e-03 9.956306e-01 -5.270701e-02 9.956353e-01 -5.283511e-02 1.830014e-03 -9.180370e-03
1.420000e+10 2.787720e-03 -7.772662e-03 9.956023e-01 -5.307369e-02 9.956070e-01 -5.320263e-02 1.822964e-03 -9.249283e-03
1.430000e+10 2.794202e-03 -7.831822e-03 9.955739e-01 -5.344028e-02 9.955785e-01 -5.357006e-02 1.815810e-03 -9.318251e-03
1.440000e+10 2.800676e-03 -7.891051e-03 9.955454e-01 -5.380677e-02 9.955499e-01 -5.393739e-02 1.808551e-03 -9.387273e-03
1.450000e+10 2.807141e-03 -7.950348e-03 9.955168e-01 -5.417317e-02 9.955213e-01 -5.430462e-02 1.801185e-03 -9.456349e-03
1.460000e+10 2.813597e-03 -8.009713e-03 9.954881e-01 -5.453947e-02 9.954925e-01 -5.467175e-02 1.793712e-03 -9.525478e-03
1.470000e+10 2.820042e-03 -8.069145e-03 9.954593e-01 -5.490568e-02 9.954636e-01 -5.503878e-02 1.786131e-03 -9.594659e-03
1.480000e+10 2.826477e-03 -8.128645e-03 9.954304e-01 -5.527179e-02 9.954346e-01 -5.540572e-02 1.778441e-03 -9.663893e-03
1.490000e+10 2.832900e-03 -8.188212e-03 9.954014e-01 -5.563782e-02 9.954056e-01 -5.577257e-02 1.770642e-03 -9.733178e-03
1.500000e+10 2.839310e-03 -8.247846e-03 9.953723e-01 -5.600375e-02 9.953764e-01 -5.613932e-02 1.762734e-03 -9.802515e-03
1.510000e+10 2.845707e-03 -8.307547e-03 9.953431e-01 -5.636959e-02 9.953471e-01 -5.650598e-02 1.754714e-03 -9.871903e-03
1.520000e+10 2.852091e-03 -8.367314e-03 9.953138e-01 -5.673535e-02 9.953178e-01 -5.687255e-02 1.746583e-03 -9.941341e-03
1.530000e+10 2.858460e-03 -8.427147e-03 9.952844e-01 -5.710101e-02 9.952883e-01 -5.723903e-02 1.738340e-03 -1.001083e-02
1.540000e+10 2.864813e-03 -8.487045e-03 9.952549e-01 -5.746659e-02 9.952587e-01 -5.760542e-02 1.729984e-03 -1.008037e-02
1.550000e+10 2.871151e-03 -8.547009e-03 9.952253e-01 -5.783208e-02 9.952291e-01 -5.797172e-02 1.721515e-03 -1.014996e-02
1.560000e+10 2.877473e-03 -8.607038e-03 9.951956e-01 -5.819749e-02 9.951994e-01 -5.833793e-02 1.712931e-03 -1.021959e-02
1.570000e+10 2.883777e-03 -8.667132e-03 9.951658e-01 -5.856281e-02 9.951695e-01 -5.870405e-02 1.704233e-03 -1.028928e-02
1.580000e+10 2.890063e-03 -8.727290e-03 9.951360e-01 -5.892805e-02 9.951396e-01 -5.907009e-02 1.695419e-03 -1.035901e-02
1.590000e+10 2.896330e-03 -8.787512e-03 9.951060e-01 -5.929321e-02 9.951096e-01 -5.943604e-02 1.686489e-03 -1.042879e-02
1.600000e+10 2.902579e-03 -8.847798e-03 9.950760e-01 -5.965828e-02 9.950795e-01 -5.980191e-02 1.677442e-03 -1.049861e-02
1.610000e+10 2.908807e-03 -8.908147e-03 9.950459e-01 -6.002328e-02 9.950493e-01 -6.016769e-02 1.668277e-03 -1.056848e-02
1.620000e+10 2.915015e-03 -8.968559e-03 9.950157e-01 -6.038819e-02 9.950190e-01 -6.053339e-02 1.658995e-03 -1.063840e-02
1.630000e+10 2.921202e-03 -9.029033e-03 9.949853e-01 -6.075303e-02 9.949886e-01 -6.089901e-02 1.649594e-03 -1.070836e-02
1.640000e+10 2.927367e-03 -9.089570e-03 9.949550e-01 -6.111779e-02 9.949582e-01 -6.126455e-02 1.640074e-03 -1.077837e-02
